
Xilinx Zynq MP First Stage Boot Loader
Release 2021.1   Jun  6 2021  -  07:07:32
NOTICE:  ATF running on XCZU9EG/silicon v4/RTL5.1 at 0xfffea000
NOTICE:  BL31: v2.4(release):xlnx_rebase_v2.4_2021.1_update1
NOTICE:  BL31: Built : 08:27:07, Apr 28 2021


U-Boot 2021.01 (Jun 01 2021 - 11:54:06 +0000)

Model: ZynqMP ZCU102 Rev1.0
Board: Xilinx ZynqMP
DRAM:  4 GiB
PMUFW:  v1.1
EL Level:       EL2
Chip ID:        zu9eg
NAND:  0 MiB
MMC:   mmc@ff170000: 0
Loading Environment from FAT... *** Warning - bad CRC, using default environment

In:    serial
Out:   serial
Err:   serial
Bootmode: LVL_SHFT_SD_MODE1
Reset reason:   EXTERNAL
Net:
ZYNQ GEM: ff0e0000, mdio bus ff0e0000, phyaddr 12, interface rgmii-id
eth0: ethernet@ff0e0000
Hit any key to stop autoboot:  0
switch to partitions #0, OK
mmc0 is current device
Scanning mmc 0:1...
Found U-Boot script /boot.scr
2594 bytes read in 15 ms (168 KiB/s)
## Executing script at 20000000
Trying to load boot images from mmc0
16322156 bytes read in 1095 ms (14.2 MiB/s)
## Loading kernel from FIT Image at 10000000 ...
   Using 'conf-system-top.dtb' configuration
   Trying 'kernel-1' kernel subimage
     Description:  Linux kernel
     Created:      2022-05-27  12:41:11 UTC
     Type:         Kernel Image
     Compression:  gzip compressed
     Data Start:   0x10000100
     Data Size:    11158973 Bytes = 10.6 MiB
     Architecture: AArch64
     OS:           Linux
     Load Address: 0x00080000
     Entry Point:  0x00080000
     Hash algo:    sha256
     Hash value:   92323ac635a4ddbc5f8bc0cf6175cb2ab509f797265a25c0f38c8b0ea7429e81
   Verifying Hash Integrity ... sha256+ OK
## Loading ramdisk from FIT Image at 10000000 ...
   Using 'conf-system-top.dtb' configuration
   Trying 'ramdisk-1' ramdisk subimage
     Description:  petalinux-initramfs-image
     Created:      2022-05-27  12:41:11 UTC
     Type:         RAMDisk Image
     Compression:  uncompressed
     Data Start:   0x10aaf0d4
     Data Size:    5117982 Bytes = 4.9 MiB
     Architecture: AArch64
     OS:           Linux
     Load Address: unavailable
     Entry Point:  unavailable
     Hash algo:    sha256
     Hash value:   0fda50786da4dd5133e39352b5d9a3b8afafe0af8676baeddd41ffa338458fdd
   Verifying Hash Integrity ... sha256+ OK
## Loading fdt from FIT Image at 10000000 ...
   Using 'conf-system-top.dtb' configuration
   Trying 'fdt-system-top.dtb' fdt subimage
     Description:  Flattened Device Tree blob
     Created:      2022-05-27  12:41:11 UTC
     Type:         Flat Device Tree
     Compression:  uncompressed
     Data Start:   0x10aa47d0
     Data Size:    43055 Bytes = 42 KiB
     Architecture: AArch64
     Hash algo:    sha256
     Hash value:   1a089960e7f0949a811a6a1f871ad091c7382a4171e0bea80bdc2cd230408472
   Verifying Hash Integrity ... sha256+ OK
   Booting using the fdt blob at 0x10aa47d0
   Uncompressing Kernel Image
   Loading Ramdisk to 7d92d000, end 7de0e81e ... OK
   Loading Device Tree to 000000007d91f000, end 000000007d92c82e ... OK

Starting kernel ...

[    0.000000] Booting Linux on physical CPU 0x0000000000 [0x410fd034]
[    0.000000] Linux version 5.10.0-xilinx-v2021.1 (oe-user@oe-host) (aarch64-xilinx-linux-gcc (GCC) 10.2.0, GNU ld (GNU Binutils) 2.35.1) #1 SMP Fri May 27 12:41:11 UTC 2022
[    0.000000] Machine model: xlnx,zynqmp
[    0.000000] earlycon: cdns0 at MMIO 0x00000000ff000000 (options '115200n8')
[    0.000000] printk: bootconsole [cdns0] enabled
[    0.000000] efi: UEFI not found.
[    0.000000] [Firmware Bug]: Kernel image misaligned at boot, please fix your bootloader!
[    0.000000] cma: Reserved 256 MiB at 0x000000006d800000
[    0.000000] Zone ranges:
[    0.000000]   DMA      [mem 0x0000000000000000-0x000000003fffffff]
[    0.000000]   DMA32    [mem 0x0000000040000000-0x00000000ffffffff]
[    0.000000]   Normal   [mem 0x0000000100000000-0x000000087fffffff]
[    0.000000] Movable zone start for each node
[    0.000000] Early memory node ranges
[    0.000000]   node   0: [mem 0x0000000000000000-0x000000007fffffff]
[    0.000000]   node   0: [mem 0x0000000800000000-0x000000087fffffff]
[    0.000000] Initmem setup node 0 [mem 0x0000000000000000-0x000000087fffffff]
[    0.000000] psci: probing for conduit method from DT.
[    0.000000] psci: PSCIv1.1 detected in firmware.
[    0.000000] psci: Using standard PSCI v0.2 function IDs
[    0.000000] psci: MIGRATE_INFO_TYPE not supported.
[    0.000000] psci: SMC Calling Convention v1.2
[    0.000000] percpu: Embedded 22 pages/cpu s50968 r8192 d30952 u90112
[    0.000000] Detected VIPT I-cache on CPU0
[    0.000000] CPU features: detected: ARM erratum 845719
[    0.000000] Built 1 zonelists, mobility grouping on.  Total pages: 1032192
[    0.000000] Kernel command line:  earlycon console=ttyPS0,115200 clk_ignore_unused init_fatal_sh=1
[    0.000000] Dentry cache hash table entries: 524288 (order: 10, 4194304 bytes, linear)
[    0.000000] Inode-cache hash table entries: 262144 (order: 9, 2097152 bytes, linear)
[    0.000000] mem auto-init: stack:off, heap alloc:off, heap free:off
[    0.000000] software IO TLB: mapped [mem 0x000000003bfff000-0x000000003ffff000] (64MB)
[    0.000000] Memory: 3747764K/4194304K available (15936K kernel code, 1722K rwdata, 12032K rodata, 2624K init, 516K bss, 184396K reserved, 262144K cma-reserved)
[    0.000000] rcu: Hierarchical RCU implementation.
[    0.000000] rcu:     RCU event tracing is enabled.
[    0.000000] rcu:     RCU restricting CPUs from NR_CPUS=8 to nr_cpu_ids=4.
[    0.000000] rcu: RCU calculated value of scheduler-enlistment delay is 25 jiffies.
[    0.000000] rcu: Adjusting geometry for rcu_fanout_leaf=16, nr_cpu_ids=4
[    0.000000] NR_IRQS: 64, nr_irqs: 64, preallocated irqs: 0
[    0.000000] GIC: Adjusting CPU interface base to 0x00000000f902f000
[    0.000000] GIC: Using split EOI/Deactivate mode
[    0.000000] random: get_random_bytes called from start_kernel+0x31c/0x524 with crng_init=0
[    0.000000] arch_timer: cp15 timer(s) running at 100.00MHz (phys).
[    0.000000] clocksource: arch_sys_counter: mask: 0xffffffffffffff max_cycles: 0x171024e7e0, max_idle_ns: 440795205315 ns
[    0.000003] sched_clock: 56 bits at 100MHz, resolution 10ns, wraps every 4398046511100ns
[    0.008434] Console: colour dummy device 80x25
[    0.012484] Calibrating delay loop (skipped), value calculated using timer frequency.. 200.00 BogoMIPS (lpj=400000)
[    0.022840] pid_max: default: 32768 minimum: 301
[    0.027595] Mount-cache hash table entries: 8192 (order: 4, 65536 bytes, linear)
[    0.034789] Mountpoint-cache hash table entries: 8192 (order: 4, 65536 bytes, linear)
[    0.043584] rcu: Hierarchical SRCU implementation.
[    0.047526] EFI services will not be available.
[    0.051960] smp: Bringing up secondary CPUs ...
[    0.056696] Detected VIPT I-cache on CPU1
[    0.056736] CPU1: Booted secondary processor 0x0000000001 [0x410fd034]
[    0.057129] Detected VIPT I-cache on CPU2
[    0.057153] CPU2: Booted secondary processor 0x0000000002 [0x410fd034]
[    0.057530] Detected VIPT I-cache on CPU3
[    0.057553] CPU3: Booted secondary processor 0x0000000003 [0x410fd034]
[    0.057601] smp: Brought up 1 node, 4 CPUs
[    0.091780] SMP: Total of 4 processors activated.
[    0.096452] CPU features: detected: 32-bit EL0 Support
[    0.101556] CPU features: detected: CRC32 instructions
[    0.106693] CPU: All CPU(s) started at EL2
[    0.110736] alternatives: patching kernel code
[    0.116275] devtmpfs: initialized
[    0.122861] Registered cp15_barrier emulation handler
[    0.123450] Registered setend emulation handler
[    0.128052] clocksource: jiffies: mask: 0xffffffff max_cycles: 0xffffffff, max_idle_ns: 7645041785100000 ns
[    0.137636] futex hash table entries: 1024 (order: 4, 65536 bytes, linear)
[    0.150994] pinctrl core: initialized pinctrl subsystem
[    0.151688] NET: Registered protocol family 16
[    0.156049] DMA: preallocated 512 KiB GFP_KERNEL pool for atomic allocations
[    0.162084] DMA: preallocated 512 KiB GFP_KERNEL|GFP_DMA pool for atomic allocations
[    0.169805] DMA: preallocated 512 KiB GFP_KERNEL|GFP_DMA32 pool for atomic allocations
[    0.177617] audit: initializing netlink subsys (disabled)
[    0.183079] audit: type=2000 audit(0.116:1): state=initialized audit_enabled=0 res=1
[    0.190661] cpuidle: using governor menu
[    0.194600] hw-breakpoint: found 6 breakpoint and 4 watchpoint registers.
[    0.201336] ASID allocator initialised with 65536 entries
[    0.227119] HugeTLB registered 1.00 GiB page size, pre-allocated 0 pages
[    0.228170] HugeTLB registered 32.0 MiB page size, pre-allocated 0 pages
[    0.234842] HugeTLB registered 2.00 MiB page size, pre-allocated 0 pages
[    0.241514] HugeTLB registered 64.0 KiB page size, pre-allocated 0 pages
[    1.307230] DRBG: Continuing without Jitter RNG
[    1.384951] raid6: neonx8   gen()  2148 MB/s
[    1.453010] raid6: neonx8   xor()  1599 MB/s
[    1.521076] raid6: neonx4   gen()  2190 MB/s
[    1.589136] raid6: neonx4   xor()  1564 MB/s
[    1.657201] raid6: neonx2   gen()  2077 MB/s
[    1.725261] raid6: neonx2   xor()  1436 MB/s
[    1.793341] raid6: neonx1   gen()  1775 MB/s
[    1.861392] raid6: neonx1   xor()  1220 MB/s
[    1.929456] raid6: int64x8  gen()  1438 MB/s
[    1.997518] raid6: int64x8  xor()   771 MB/s
[    2.065591] raid6: int64x4  gen()  1602 MB/s
[    2.133653] raid6: int64x4  xor()   813 MB/s
[    2.201733] raid6: int64x2  gen()  1398 MB/s
[    2.269788] raid6: int64x2  xor()   749 MB/s
[    2.337859] raid6: int64x1  gen()  1033 MB/s
[    2.405926] raid6: int64x1  xor()   517 MB/s
[    2.405964] raid6: using algorithm neonx4 gen() 2190 MB/s
[    2.409919] raid6: .... xor() 1564 MB/s, rmw enabled
[    2.414850] raid6: using neon recovery algorithm
[    2.419874] iommu: Default domain type: Translated
[    2.424504] SCSI subsystem initialized
[    2.428148] usbcore: registered new interface driver usbfs
[    2.433475] usbcore: registered new interface driver hub
[    2.438751] usbcore: registered new device driver usb
[    2.443883] mc: Linux media interface: v0.10
[    2.447997] videodev: Linux video capture interface: v2.00
[    2.453488] EDAC MC: Ver: 3.0.0
[    2.456938] zynqmp-ipi-mbox mailbox@ff990400: Registered ZynqMP IPI mbox with TX/RX channels.
[    2.465314] jesd204: found 0 devices and 0 topologies
[    2.470070] FPGA manager framework
[    2.473538] Advanced Linux Sound Architecture Driver Initialized.
[    2.479856] Bluetooth: Core ver 2.22
[    2.483023] NET: Registered protocol family 31
[    2.487425] Bluetooth: HCI device and connection manager initialized
[    2.493741] Bluetooth: HCI socket layer initialized
[    2.498583] Bluetooth: L2CAP socket layer initialized
[    2.503607] Bluetooth: SCO socket layer initialized
[    2.508767] clocksource: Switched to clocksource arch_sys_counter
[    2.514641] VFS: Disk quotas dquot_6.6.0
[    2.518443] VFS: Dquot-cache hash table entries: 512 (order 0, 4096 bytes)
[    2.529393] NET: Registered protocol family 2
[    2.529896] tcp_listen_portaddr_hash hash table entries: 2048 (order: 3, 32768 bytes, linear)
[    2.538072] TCP established hash table entries: 32768 (order: 6, 262144 bytes, linear)
[    2.546102] TCP bind hash table entries: 32768 (order: 7, 524288 bytes, linear)
[    2.553545] TCP: Hash tables configured (established 32768 bind 32768)
[    2.559723] UDP hash table entries: 2048 (order: 4, 65536 bytes, linear)
[    2.566390] UDP-Lite hash table entries: 2048 (order: 4, 65536 bytes, linear)
[    2.573559] NET: Registered protocol family 1
[    2.578033] RPC: Registered named UNIX socket transport module.
[    2.583623] RPC: Registered udp transport module.
[    2.588290] RPC: Registered tcp transport module.
[    2.592956] RPC: Registered tcp NFSv4.1 backchannel transport module.
[    2.599964] PCI: CLS 0 bytes, default 64
[    2.603355] Trying to unpack rootfs image as initramfs...
[    2.844339] Freeing initrd memory: 4996K
[    2.844765] hw perfevents: no interrupt-affinity property for /pmu, guessing.
[    2.849925] hw perfevents: enabled with armv8_pmuv3 PMU driver, 7 counters available
[    2.858369] Initialise system trusted keyrings
[    2.861969] workingset: timestamp_bits=46 max_order=20 bucket_order=0
[    2.868976] NFS: Registering the id_resolver key type
[    2.873263] Key type id_resolver registered
[    2.877402] Key type id_legacy registered
[    2.881399] nfs4filelayout_init: NFSv4 File Layout Driver Registering...
[    2.888062] jffs2: version 2.2. (NAND) (SUMMARY)  © 2001-2006 Red Hat, Inc.
[    2.895238] fuse: init (API version 7.32)
[    2.934350] NET: Registered protocol family 38
[    2.934394] xor: measuring software checksum speed
[    2.942085]    8regs           :  2363 MB/sec
[    2.945753]    32regs          :  2799 MB/sec
[    2.950696]    arm64_neon      :  2380 MB/sec
[    2.950886] xor: using function: 32regs (2799 MB/sec)
[    2.955912] Key type asymmetric registered
[    2.959973] Asymmetric key parser 'x509' registered
[    2.964836] Block layer SCSI generic (bsg) driver version 0.4 loaded (major 248)
[    2.972171] io scheduler mq-deadline registered
[    2.976667] io scheduler kyber registered
[    3.007855] Serial: 8250/16550 driver, 4 ports, IRQ sharing disabled
[    3.012672] cacheinfo: Unable to detect cache hierarchy for CPU 0
[    3.019177] brd: module loaded
[    3.023639] loop: module loaded
[    3.023934] Registered mathworks_ip class
[    3.027306] libphy: Fixed MDIO Bus: probed
[    3.030254] tun: Universal TUN/TAP device driver, 1.6
[    3.034293] CAN device driver interface
[    3.038886] usbcore: registered new interface driver asix
[    3.043427] usbcore: registered new interface driver ax88179_178a
[    3.049454] usbcore: registered new interface driver cdc_ether
[    3.055247] usbcore: registered new interface driver net1080
[    3.060873] usbcore: registered new interface driver cdc_subset
[    3.066754] usbcore: registered new interface driver zaurus
[    3.072297] usbcore: registered new interface driver cdc_ncm
[    3.078744] ehci_hcd: USB 2.0 'Enhanced' Host Controller (EHCI) Driver
[    3.084381] ehci-pci: EHCI PCI platform driver
[    3.089210] usbcore: registered new interface driver uas
[    3.094102] usbcore: registered new interface driver usb-storage
[    3.100094] usbcore: registered new interface driver usbserial_generic
[    3.106537] usbserial: USB Serial support registered for generic
[    3.112510] usbcore: registered new interface driver ftdi_sio
[    3.118214] usbserial: USB Serial support registered for FTDI USB Serial Device
[    3.125487] usbcore: registered new interface driver upd78f0730
[    3.131360] usbserial: USB Serial support registered for upd78f0730
[    3.139061] rtc_zynqmp ffa60000.rtc: registered as rtc0
[    3.142785] rtc_zynqmp ffa60000.rtc: setting system clock to 2021-04-06T13:04:15 UTC (1617714255)
[    3.151638] i2c /dev entries driver
[    3.156959] usbcore: registered new interface driver uvcvideo
[    3.160751] USB Video Class driver (1.1.1)
[    3.165924] Bluetooth: HCI UART driver ver 2.3
[    3.169239] Bluetooth: HCI UART protocol H4 registered
[    3.174340] Bluetooth: HCI UART protocol BCSP registered
[    3.179629] Bluetooth: HCI UART protocol LL registered
[    3.184719] Bluetooth: HCI UART protocol ATH3K registered
[    3.190094] Bluetooth: HCI UART protocol Three-wire (H5) registered
[    3.196346] Bluetooth: HCI UART protocol Intel registered
[    3.201688] Bluetooth: HCI UART protocol QCA registered
[    3.206887] usbcore: registered new interface driver bcm203x
[    3.212509] usbcore: registered new interface driver bpa10x
[    3.218044] usbcore: registered new interface driver bfusb
[    3.223498] usbcore: registered new interface driver btusb
[    3.228956] usbcore: registered new interface driver ath3k
[    3.234450] EDAC MC: ECC not enabled
[    3.238069] EDAC DEVICE0: Giving out device to module zynqmp-ocm-edac controller zynqmp_ocm: DEV ff960000.memory-controller (INTERRUPT)
[    3.250370] sdhci: Secure Digital Host Controller Interface driver
[    3.256173] sdhci: Copyright(c) Pierre Ossman
[    3.260493] sdhci-pltfm: SDHCI platform and OF driver helper
[    3.266524] ledtrig-cpu: registered to indicate activity on CPUs
[    3.272097] SMCCC: SOC_ID: ARCH_SOC_ID not implemented, skipping ....
[    3.278526] zynqmp_firmware_probe Platform Management API v1.1
[    3.284283] zynqmp_firmware_probe Trustzone version v1.0
[    3.350640] zynqmp-aes firmware:zynqmp-firmware:zynqmp-aes: will run requests pump with realtime priority
[    3.368276] alg: No test for xilinx-keccak-384 (zynqmp-keccak-384)
[    3.369021] alg: No test for xilinx-zynqmp-rsa (zynqmp-rsa)
[    3.374509] usbcore: registered new interface driver usbhid
[    3.379891] usbhid: USB HID core driver
[    3.390705] axi_sysid 85000000.axi-sysid-0: AXI System ID core version (1.01.a) found
[    3.393065] axi_sysid 85000000.axi-sysid-0: [adrv9001] [CMOS_LVDS_N=0] on [zcu102] git branch <> git <0> dirty [2021-11-30 06:03:42] UTC
[    3.405630] fpga_manager fpga0: Xilinx ZynqMP FPGA Manager registered
[    3.411999] usbcore: registered new interface driver snd-usb-audio
[    3.419396] pktgen: Packet Generator for packet performance testing. Version: 2.75
[    3.425763] Initializing XFRM netlink socket
[    3.429465] NET: Registered protocol family 10
[    3.434216] Segment Routing with IPv6
[    3.437591] sit: IPv6, IPv4 and MPLS over IPv4 tunneling driver
[    3.443657] NET: Registered protocol family 17
[    3.447741] NET: Registered protocol family 15
[    3.452221] can: controller area network core
[    3.456493] NET: Registered protocol family 29
[    3.460883] can: raw protocol
[    3.463814] can: broadcast manager protocol
[    3.467977] can: netlink gateway - max_hops=1
[    3.472372] Bluetooth: RFCOMM TTY layer initialized
[    3.477150] Bluetooth: RFCOMM socket layer initialized
[    3.482261] Bluetooth: RFCOMM ver 1.11
[    3.485967] Bluetooth: BNEP (Ethernet Emulation) ver 1.3
[    3.491240] Bluetooth: BNEP filters: protocol multicast
[    3.496431] Bluetooth: BNEP socket layer initialized
[    3.501360] Bluetooth: HIDP (Human Interface Emulation) ver 1.2
[    3.507245] Bluetooth: HIDP socket layer initialized
[    3.512300] 9pnet: Installing 9P2000 support
[    3.516436] NET: Registered protocol family 36
[    3.520840] Key type dns_resolver registered
[    3.525253] registered taskstats version 1
[    3.529134] Loading compiled-in X.509 certificates
[    3.534262] Btrfs loaded, crc32c=crc32c-generic
[    3.547106] ff000000.serial: ttyPS0 at MMIO 0xff000000 (irq = 57, base_baud = 6249999) is a xuartps
[    3.556125] printk: console [ttyPS0] enabled
[    3.556125] printk: console [ttyPS0] enabled
[    3.560422] printk: bootconsole [cdns0] disabled
[    3.560422] printk: bootconsole [cdns0] disabled
[    3.569836] ff010000.serial: ttyPS1 at MMIO 0xff010000 (irq = 58, base_baud = 6249999) is a xuartps
[    3.583253] of-fpga-region fpga-full: FPGA Region probed
[    3.589176] nwl-pcie fd0e0000.pcie: host bridge /axi/pcie@fd0e0000 ranges:
[    3.596076] nwl-pcie fd0e0000.pcie:      MEM 0x00e0000000..0x00efffffff -> 0x00e0000000
[    3.604090] nwl-pcie fd0e0000.pcie:      MEM 0x0600000000..0x07ffffffff -> 0x0600000000
[    3.612163] nwl-pcie fd0e0000.pcie: Link is DOWN
[    3.616931] nwl-pcie fd0e0000.pcie: PCI host bridge to bus 0000:00
[    3.623108] pci_bus 0000:00: root bus resource [bus 00-ff]
[    3.628589] pci_bus 0000:00: root bus resource [mem 0xe0000000-0xefffffff]
[    3.635454] pci_bus 0000:00: root bus resource [mem 0x600000000-0x7ffffffff pref]
[    3.642960] pci 0000:00:00.0: [10ee:d021] type 01 class 0x060400
[    3.649018] pci 0000:00:00.0: PME# supported from D0 D1 D2 D3hot
[    3.657925] pci 0000:00:00.0: PCI bridge to [bus 01-0c]
[    3.664322] xilinx-zynqmp-dma fd500000.dma: ZynqMP DMA driver Probe success
[    3.671501] xilinx-zynqmp-dma fd510000.dma: ZynqMP DMA driver Probe success
[    3.678681] xilinx-zynqmp-dma fd520000.dma: ZynqMP DMA driver Probe success
[    3.685857] xilinx-zynqmp-dma fd530000.dma: ZynqMP DMA driver Probe success
[    3.693031] xilinx-zynqmp-dma fd540000.dma: ZynqMP DMA driver Probe success
[    3.700211] xilinx-zynqmp-dma fd550000.dma: ZynqMP DMA driver Probe success
[    3.707389] xilinx-zynqmp-dma fd560000.dma: ZynqMP DMA driver Probe success
[    3.714576] xilinx-zynqmp-dma fd570000.dma: ZynqMP DMA driver Probe success
[    3.721817] xilinx-zynqmp-dma ffa80000.dma: ZynqMP DMA driver Probe success
[    3.728995] xilinx-zynqmp-dma ffa90000.dma: ZynqMP DMA driver Probe success
[    3.736176] xilinx-zynqmp-dma ffaa0000.dma: ZynqMP DMA driver Probe success
[    3.743351] xilinx-zynqmp-dma ffab0000.dma: ZynqMP DMA driver Probe success
[    3.750526] xilinx-zynqmp-dma ffac0000.dma: ZynqMP DMA driver Probe success
[    3.757709] xilinx-zynqmp-dma ffad0000.dma: ZynqMP DMA driver Probe success
[    3.764903] xilinx-zynqmp-dma ffae0000.dma: ZynqMP DMA driver Probe success
[    3.772081] xilinx-zynqmp-dma ffaf0000.dma: ZynqMP DMA driver Probe success
[    3.779485] xilinx-zynqmp-dpdma fd4c0000.dma-controller: Xilinx DPDMA engine is probed
[    3.787612] xilinx-psgtr fd400000.phy: Invalid reference clock number 3
[    3.794225] zynqmp-display fd4a0000.display: failed to get PHY lane 0
[    3.800684] zynqmp-display: probe of fd4a0000.display failed with error -22
[    3.808087] ahci-ceva fd0c0000.ahci: supply ahci not found, using dummy regulator
[    3.815639] ahci-ceva fd0c0000.ahci: supply phy not found, using dummy regulator
[    3.823062] ahci-ceva fd0c0000.ahci: supply target not found, using dummy regulator
[    3.830847] ahci-ceva fd0c0000.ahci: AHCI 0001.0301 32 slots 2 ports 6 Gbps 0x3 impl platform mode
[    3.839804] ahci-ceva fd0c0000.ahci: flags: 64bit ncq sntf pm clo only pmp fbs pio slum part ccc sds apst
[    3.850639] scsi host0: ahci-ceva
[    3.854259] scsi host1: ahci-ceva
[    3.857695] ata1: SATA max UDMA/133 mmio [mem 0xfd0c0000-0xfd0c1fff] port 0x100 irq 53
[    3.865606] ata2: SATA max UDMA/133 mmio [mem 0xfd0c0000-0xfd0c1fff] port 0x180 irq 53
[    3.874462] adrv9001.c : function : adrv9002_probe: Line: 4708 => IN
[    3.874465] adrv9002_probe : 4619
[    3.880840] adrv9001.c : function : adrv9002_profile_load: Line: 4499 => IN
[    3.887432] adrv9001.c : function : adrv9002_profile_load: Line: 4516 => OUT
[    3.894416] adrv9001.c : function : adrv9002_parse_dt: Line: 4068 => IN
[    3.901471] adrv9001.c : function : adrv9002_parse_rx_dt: Line: 4012 => IN
[    3.908075] adrv9001.c : function : adrv9002_parse_rx_agc_dt: Line: 3928 => IN
[    3.914944] adrv9001.c : function : adrv9002_set_agc_defaults: Line: 3896 => IN
[    3.922154] adrv9001.c : function : adrv9002_set_agc_defaults: Line: 3910 => OUT
[    3.929453] adrv9001.c : function : adrv9002_parse_rx_pinctl_dt: Line: 3735 => IN
[    3.936840] adrv9001.c : function : adrv9002_get_arm_clk: Line: 3176 => IN
[    3.944312] adrv9001.c : adrv9002_get_arm_clk: Line: 3179,sys clock 48*10
[    3.951178] adrv9001.c : function : adrv9002_get_arm_clk: Line: 3184 => OUT
[    3.957973] adrv9001.c : function : adrv9002_parse_rx_dt: Line: 4059 => OUT
[    3.964931] adrv9001.c : function : adrv9002_parse_rx_dt: Line: 4012 => IN
[    3.971880] adrv9001.c : function : adrv9002_parse_rx_agc_dt: Line: 3928 => IN
[    3.978746] adrv9001.c : function : adrv9002_set_agc_defaults: Line: 3896 => IN
[    3.985964] adrv9001.c : function : adrv9002_set_agc_defaults: Line: 3910 => OUT
[    3.993267] adrv9001.c : function : adrv9002_parse_rx_pinctl_dt: Line: 3735 => IN
[    4.000655] adrv9001.c : function : adrv9002_get_arm_clk: Line: 3176 => IN
[    4.008128] adrv9001.c : adrv9002_get_arm_clk: Line: 3179,sys clock 48*10
[    4.014993] adrv9001.c : function : adrv9002_get_arm_clk: Line: 3184 => OUT
[    4.021786] adrv9001.c : function : adrv9002_parse_rx_dt: Line: 4059 => OUT
[    4.028736] adrv9001.c : function : adrv9002_parse_tx_dt: Line: 3717 => IN
[    4.035688] adrv9001.c : function : adrv9002_get_arm_clk: Line: 3176 => IN
[    4.042552] adrv9001.c : adrv9002_get_arm_clk: Line: 3179,sys clock 48*10
[    4.049417] adrv9001.c : function : adrv9002_get_arm_clk: Line: 3184 => OUT
[    4.056198] adrv9001.c : function : adrv9002_parse_tx_dt: Line: 3725 => OUT
[    4.063150] adrv9001.c : function : adrv9002_parse_tx_pin_dt: Line: 3679 => IN
[    4.070105] adrv9001.c : function : adrv9002_parse_tx_dt: Line: 3717 => IN
[    4.077316] adrv9001.c : function : adrv9002_get_arm_clk: Line: 3176 => IN
[    4.084180] adrv9001.c : adrv9002_get_arm_clk: Line: 3179,sys clock 48*10
[    4.091046] adrv9001.c : function : adrv9002_get_arm_clk: Line: 3184 => OUT
[    4.097827] adrv9001.c : function : adrv9002_parse_tx_dt: Line: 3725 => OUT
[    4.104779] adrv9001.c : function : adrv9002_parse_tx_pin_dt: Line: 3679 => IN
[    4.111742] adrv9001.c : function : adrv9002_parse_fh_dt: Line: 3492 => IN
[    4.118965] adrv9001.c : function : adrv9002_fh_parse_table_control: Line: 3343 => IN
[    4.125829] adrv9001.c : function : adrv9002_fh_parse_gpio_gain_control: Line: 3440 => IN
[    4.133650] adrv9001.c : function : adrv9002_parse_fh_dt: Line: 3605 => OUT
[    4.141816] adrv9001.c : function : adrv9002_parse_dt: Line: 4207 => OUT
[    4.148769] probe function exit : 4681
[    4.155461] adrv9001.c : function : adrv9002_probe: Line: 4772 =>IN
[    4.160466] spi-nor spi0.0: SPI-NOR-UniqueID 0c04910010fdff0d00ac90869a32
[    4.174196] spi-nor spi0.0: trying to lock already unlocked area
[    4.180195] spi-nor spi0.0: mt25qu512a (131072 Kbytes)
[    4.186976] ata1: SATA link down (SStatus 0 SControl 330)
[    4.187182] macb ff0e0000.ethernet: Not enabling partial store and forward
[    4.197449] ata2: SATA link down (SStatus 0 SControl 330)
[    4.203326] libphy: MACB_mii_bus: probed
[    4.208575] macb ff0e0000.ethernet eth0: Cadence GEM rev 0x50070106 at 0xff0e0000 irq 38 (00:0a:35:04:ba:48)
[    4.218808] xilinx-axipmon ffa00000.perf-monitor: Probed Xilinx APM
[    4.225416] xilinx-axipmon fd0b0000.perf-monitor: Probed Xilinx APM
[    4.231950] xilinx-axipmon fd490000.perf-monitor: Probed Xilinx APM
[    4.238503] xilinx-axipmon ffa10000.perf-monitor: Probed Xilinx APM
[    4.248040] cdns-i2c ff020000.i2c: 400 kHz mmio ff020000 irq 40
[    4.254506] i2c i2c-1: of_i2c: modalias failure on /axi/i2c@ff030000/i2c-mux@75
[    4.261822] i2c i2c-1: Failed to create I2C device for /axi/i2c@ff030000/i2c-mux@75
[    4.269493] cdns-i2c ff030000.i2c: 400 kHz mmio ff030000 irq 41
[    4.275856] cdns-wdt fd4d0000.watchdog: Xilinx Watchdog Timer with timeout 60s
[    4.283362] cdns-wdt ff150000.watchdog: Xilinx Watchdog Timer with timeout 10s
[    4.311860] adrv9001.c : function : adrv9002_post_init: Line: 4580 => IN
[    4.311864] adrv9001.c : adrv9002_clk_register : IN : 323
[    4.318558] adrv9001.c : adrv9002_clk_set_dev_name : IN : 269
[    4.320773] mmc0: SDHCI controller on ff170000.mmc [ff170000.mmc] using ADMA 64-bit
[    4.323947] adrv9001.c : adrv9002_clk_set_dev_name : OUT : 279
[    4.337457] adrv9001.c : adrv9002_bb_recalc_rate : IN : 286
[    4.343280] adrv9001.c : adrv9002_bb_recalc_rate : OUT : 288
[    4.349008] adrv9001.c : adrv9002_clk_register : out : 348
[    4.354659] adrv9001.c : adrv9002_clk_register : IN : 323
[    4.360134] adrv9001.c : adrv9002_clk_set_dev_name : IN : 269
[    4.365529] adrv9001.c : adrv9002_clk_set_dev_name : OUT : 279
[    4.371281] adrv9001.c : adrv9002_bb_recalc_rate : IN : 286
[    4.377108] adrv9001.c : adrv9002_bb_recalc_rate : OUT : 288
[    4.382835] adrv9001.c : adrv9002_clk_register : out : 348
[    4.388485] adrv9001.c : adrv9002_clk_register : IN : 323
[    4.393641] mmc0: new ultra high speed DDR50 SDHC card at address 1234
[    4.393961] adrv9001.c : adrv9002_clk_set_dev_name : IN : 269
[    4.399704] mmcblk0: mmc0:1234 SA16G 14.4 GiB
[    4.405858] adrv9001.c : adrv9002_clk_set_dev_name : OUT : 279
[    4.413457]  mmcblk0: p1 p2
[    4.416039] adrv9001.c : adrv9002_bb_recalc_rate : IN : 286
[    4.424614] adrv9001.c : adrv9002_bb_recalc_rate : OUT : 288
[    4.430342] adrv9001.c : adrv9002_clk_register : out : 348
[    4.435991] adrv9001.c : adrv9002_clk_register : IN : 323
[    4.441466] adrv9001.c : adrv9002_clk_set_dev_name : IN : 269
[    4.446856] adrv9001.c : adrv9002_clk_set_dev_name : OUT : 279
[    4.452610] adrv9001.c : adrv9002_bb_recalc_rate : IN : 286
[    4.458440] adrv9001.c : adrv9002_bb_recalc_rate : OUT : 288
[    4.464165] adrv9001.c : adrv9002_clk_register : out : 348
[    4.469816] adrv9001.c : adrv9002_clk_register : IN : 323
[    4.475292] adrv9001.c : adrv9002_clk_set_dev_name : IN : 269
[    4.480682] adrv9001.c : adrv9002_clk_set_dev_name : OUT : 279
[    4.486436] adrv9001.c : adrv9002_bb_recalc_rate : IN : 286
[    4.492266] adrv9001.c : adrv9002_bb_recalc_rate : OUT : 288
[    4.497989] adrv9001.c : adrv9002_clk_register : out : 348
[    4.503642] adrv9001.c : adrv9002_clk_register : IN : 323
[    4.509118] adrv9001.c : adrv9002_clk_set_dev_name : IN : 269
[    4.514508] adrv9001.c : adrv9002_clk_set_dev_name : OUT : 279
[    4.520264] adrv9001.c : adrv9002_bb_recalc_rate : IN : 286
[    4.526089] adrv9001.c : adrv9002_bb_recalc_rate : OUT : 288
[    4.531829] adrv9001.c : adrv9002_clk_register : out : 348
[    4.537479] adrv9001.c : function : adrv9002_profile_load: Line: 4499 => IN
[    4.546227] adrv9001.c : function : adrv9002_profile_load: Line: 4516 => OUT
[    4.553182] adrv9001.c : function : adrv9002_cleanup: Line: 3157 => IN
[    4.560221] adrv9001.c : function : adrv9002_cleanup: Line: 3169 => OUT
[    4.566737] adrv9001.c : function : adrv9002_init: Line: 4217 => IN
[    4.573344] adrv9001.c : function : adrv9002_setup: Line: 2851 => IN
[    4.580660] MESSAGE:SPI WRITE:         SPI_INTERFACE_CONFIG_B: addr=0x0001, data=0x80
[    4.594945] MESSAGE:SPI WRITE:         SPI_INTERFACE_CONFIG_A: addr=0x0000, data=0x3c
[    4.602881] MESSAGE:SPI READ:                    VENDOR_ID_0: addr=0x000b, data=0x56
[    4.610725] MESSAGE:SPI READ:                    VENDOR_ID_1: addr=0x000c, data=0x04
[    4.618580] MESSAGE:SPI WRITE:                    SCRATCH_PAD: addr=0x0009, data=0xb6
[    4.626519] MESSAGE:SPI READ:                    SCRATCH_PAD: addr=0x0009, data=0xb6
[    4.634364] MESSAGE:SPI WRITE:                    SCRATCH_PAD: addr=0x0009, data=0x49
[    4.642298] MESSAGE:SPI READ:                    SCRATCH_PAD: addr=0x0009, data=0x49
[    4.650146] MESSAGE:SPI READ: SCRATCH_PAD_READ_ONLY_UPPER_ADDR: addr=0x01fc, data=0xa5
[    4.658164] MESSAGE:SPI WRITE:         SCRATCH_PAD_UPPER_ADDR: addr=0x01fb, data=0xb6
[    4.666099] MESSAGE:SPI READ:         SCRATCH_PAD_UPPER_ADDR: addr=0x01fb, data=0xb6
[    4.673944] MESSAGE:SPI WRITE:         SCRATCH_PAD_UPPER_ADDR: addr=0x01fb, data=0x49
[    4.681878] MESSAGE:SPI READ:         SCRATCH_PAD_UPPER_ADDR: addr=0x01fb, data=0x49
[    4.689700] adrv9001.c : function : adrv9002_validate_profile: Line: 2497 => IN
[    4.689705] adrv9001.c : function : adrv9002_validate_profile: Line: 2624 => OUT
[    4.697008] adrv9001.c : function : adrv9002_compute_init_cals: Line: 2458 =>IN
[    4.704394] adrv9001.c : function : adrv9002_compute_init_cals: Line: 2480 =>OUT
[    4.711697] adrv9001_InitAnalog_Validate: 377
[    4.719112] MESSAGE:SPI WRITE:            MASTERBIAS_CONFIG_0: addr=0x01b4, data=0x00
[    4.731395] MESSAGE:SPI WRITE:              ANALOG_CONTROL_18: addr=0x01c9, data=0x05
[    4.739331] MESSAGE:SPI WRITE:           DEVICE_CLK_CONTROL_1: addr=0x01e0, data=0x12
[    4.747244] adrv9001_ProfilesVerify : 628
[    4.747247] adrv9001_VerifyRxProfile : 524
[    4.751249] adrv9001_VerifyRxProfile : 524
[    4.755338] adrv9001_VerifyTxProfile : 488
[    4.759426] adrv9001_VerifyLbProfile : 596
[    4.763513] adrv9001_VerifyTxProfile : 488
[    4.767601] adrv9001_VerifyLbProfile : 596
[    4.771689] adrv9001_InitAnalog : 400
[    4.775910] MESSAGE:SPI WRITE:        REF_CLK_GEN_OUT_CLKS_PD: addr=0x01ca, data=0x1b
[    4.787493] MESSAGE:SPI WRITE:             REF_CLK_PAD_CONFIG: addr=0x0076, data=0x00
[    4.795428] MESSAGE:SPI WRITE:                   BBIC_ENABLES: addr=0x0162, data=0x00
[    4.803340] adrv9001.c : function : adrv9002_digital_init: Line: 2661 => IN
[    4.803369] MESSAGE:SPI READ:                 AHB_SPI_BRIDGE: addr=0x00d2, data=0x0e
[    4.818145] ###ENABLE  AHB_SPI_BRIDGE 1 e
[    4.818171] MESSAGE:SPI WRITE:                 AHB_SPI_BRIDGE: addr=0x00d2, data=0x0f
[    4.830080] ###ENABLE  AHB_SPI_BRIDGE 2 f
[    4.830113] MESSAGE:SPI WRITE:                     STREAM_CTL: addr=0x0116, data=0xf1
[    4.860534] random: fast init done
[    4.919724] MESSAGE:SPI WRITE:              STREAM_BASE_BYTE0: addr=0x0117, data=0x38
[    4.927661] MESSAGE:SPI WRITE:              STREAM_BASE_BYTE1: addr=0x0118, data=0x40
[    4.935599] MESSAGE:SPI WRITE:             LAST_STREAM_NUMBER: addr=0x0119, data=0x3f
[    4.943536] MESSAGE:SPI WRITE:                     STREAM_CTL: addr=0x0116, data=0xf0
[    4.951473] MESSAGE:SPI WRITE:                     STREAM_CTL: addr=0x023c, data=0xc1
[    4.978066] MESSAGE:SPI WRITE:              STREAM_BASE_BYTE0: addr=0x023d, data=0x10
[    4.986006] MESSAGE:SPI WRITE:              STREAM_BASE_BYTE1: addr=0x023e, data=0x00
[    4.993940] MESSAGE:SPI WRITE:             LAST_STREAM_NUMBER: addr=0x023f, data=0x3f
[    5.001874] MESSAGE:SPI WRITE:                     STREAM_CTL: addr=0x023c, data=0xc0
[    5.009812] MESSAGE:SPI WRITE:                     STREAM_CTL: addr=0x0254, data=0xc1
[    5.036447] MESSAGE:SPI WRITE:              STREAM_BASE_BYTE0: addr=0x0255, data=0x10
[    5.044381] MESSAGE:SPI WRITE:              STREAM_BASE_BYTE1: addr=0x0256, data=0x00
[    5.052314] MESSAGE:SPI WRITE:             LAST_STREAM_NUMBER: addr=0x0257, data=0x3f
[    5.060248] MESSAGE:SPI WRITE:                     STREAM_CTL: addr=0x0254, data=0xc0
[    5.068185] MESSAGE:SPI WRITE:                     STREAM_CTL: addr=0x026c, data=0xc1
[    5.094781] MESSAGE:SPI WRITE:              STREAM_BASE_BYTE0: addr=0x026d, data=0x10
[    5.102711] MESSAGE:SPI WRITE:              STREAM_BASE_BYTE1: addr=0x026e, data=0x00
[    5.110642] MESSAGE:SPI WRITE:             LAST_STREAM_NUMBER: addr=0x026f, data=0x3f
[    5.118584] MESSAGE:SPI WRITE:                     STREAM_CTL: addr=0x026c, data=0xc0
[    5.126522] MESSAGE:SPI WRITE:                     STREAM_CTL: addr=0x0284, data=0xc1
[    5.153145] MESSAGE:SPI WRITE:              STREAM_BASE_BYTE0: addr=0x0285, data=0x10
[    5.161075] MESSAGE:SPI WRITE:              STREAM_BASE_BYTE1: addr=0x0286, data=0x00
[    5.169008] MESSAGE:SPI WRITE:             LAST_STREAM_NUMBER: addr=0x0287, data=0x3f
[    5.176941] MESSAGE:SPI WRITE:                     STREAM_CTL: addr=0x0284, data=0xc0
[    5.184881] MESSAGE:SPI WRITE:           ARM_BOOT_ADDR_BYTE_0: addr=0x00d3, data=0x2d
[    5.192815] MESSAGE:SPI WRITE:           ARM_BOOT_ADDR_BYTE_1: addr=0x00d4, data=0x5c
[    5.200750] MESSAGE:SPI WRITE:           ARM_BOOT_ADDR_BYTE_2: addr=0x00d5, data=0x04
[    5.208684] MESSAGE:SPI WRITE:           ARM_BOOT_ADDR_BYTE_3: addr=0x00d6, data=0x01
[    5.216616] MESSAGE:SPI WRITE:           ARM_STACK_PTR_BYTE_0: addr=0x00d7, data=0x60
[    5.224552] MESSAGE:SPI WRITE:           ARM_STACK_PTR_BYTE_1: addr=0x00d8, data=0x1d
[    5.232485] MESSAGE:SPI WRITE:           ARM_STACK_PTR_BYTE_2: addr=0x00d9, data=0x01
[    5.240418] MESSAGE:SPI WRITE:           ARM_STACK_PTR_BYTE_3: addr=0x00da, data=0x20
[    6.601533] random: crng init done
[    6.775625] MESSAGE:SPI WRITE:          RX1_DEC_POWR_CONFIG_1: addr=0x1012, data=0x09
[    6.783558] MESSAGE:SPI WRITE:       RX1_DIGITAL_GAIN_CONFIG2: addr=0x0f67, data=0x01
[    6.802947] MESSAGE:SPI WRITE:          RX1_DEC_POWR_CONFIG_1: addr=0x1012, data=0x09
[    6.810882] MESSAGE:SPI WRITE:       RX1_DIGITAL_GAIN_CONFIG2: addr=0x0f67, data=0x01
[    6.821284] MESSAGE:SPI WRITE:          RX2_DEC_POWR_CONFIG_1: addr=0x1412, data=0x09
[    6.829214] MESSAGE:SPI WRITE:       RX2_DIGITAL_GAIN_CONFIG2: addr=0x1367, data=0x01
[    6.848520] MESSAGE:SPI WRITE:          RX2_DEC_POWR_CONFIG_1: addr=0x1412, data=0x09
[    6.856456] MESSAGE:SPI WRITE:       RX2_DIGITAL_GAIN_CONFIG2: addr=0x1367, data=0x01
[    7.056426] adrv9001.c : function : adrv9002_power_mgmt_config: Line: 2631 => IN
[    7.056431] adi_adrv9001_powermanagement.h: function : adi_adrv9001_powermanagement_Configure: Line: 80 =>IN
[    7.063822] adi_adrv9001_powermanagement.h: function : adi_adrv9001_powermanagement_Configure_Validate: Line: 27 =>IN
[    7.074284] ReadPattern1 -272716322
[    7.088359] fixedPattern1 -272716322
[    7.091923] pwermangment value 0
[    7.091925] pwermangment value 0
[    7.095143] pwermangment value 0
[    7.098362] pwermangment value 0
[    7.101584] pwermangment value 0
[    7.104810] pwermangment value 0
[    7.108027] pwermangment value 0
[    7.111245] pwermangment value 0
[    7.114464] pwermangment value 0
[    7.117684] pwermangment value 0
[    7.120905] pwermangment value 0
[    7.124120] pwermangment value 0
[    7.127337] pwermangment value 0
[    7.130556] pwermangment value 0
[    7.133777] pwermangment value 0
[    7.136998] pwermangment value 0
[    7.140212] pwermangment value 0
[    7.143430] pwermangment value 0
[    7.146649] pwermangment value 0
[    7.149871] adi_adrv9001_powermanagement.h: function : adi_adrv9001_powermanagement_Configure_Validate: Line: 66 =>OUT
[    7.154381] adi_adrv9001_powermanagement.h: function : adi_adrv9001_powermanagement_Configure: Line: 88 =>OUT
[    7.165073] adrv9001.c : function : adrv9002_power_mgmt_config: Line: 2648 => OUT
[    7.175355] MESSAGE:SPI WRITE:                      ARM_CTL_1: addr=0x00cf, data=0x89
[    7.190739] adrv9001_arm_StartStatus : waitInterval_us1 0:
[    7.190742] adrv9001_arm_StartStatus : waitInterval_us2 100000:
[    7.196222] adrv9001_arm_StartStatus : timeout_us 5000000:
[    7.202132] adrv9001_arm_StartStatus : numEventChecks 50:
[    7.207642] MESSAGE:SPI READ:               arm_cmd_status_8: addr=0x010e, data=0x00
[    7.220857] arm_cmd_status_8 : adi_adrv9001_Radio_State_Get: Line: 391 :reg VAlue 0x00
[    7.220859] ###################ARM COMMAND 8###########################
[    7.228767] radioState->systemState     :0x00
[    7.235369] radioState->monitorModeState:0x00
[    7.239717] radioState->mcsState        :0x00
[    7.244066] radioState->bootState       :0x00
[    7.248439] MESSAGE:SPI READ:               arm_cmd_status_9: addr=0x010f, data=0x00
[    7.260614] arm_cmd_status_9 : adi_adrv9001_Radio_State_Get: Line: 407 :reg VAlue 0x00
[    7.260616] ###################ARM COMMAND 9###########################
[    7.268527] radioState->channelStates[0][0] :0x00
[    7.275131] radioState->channelStates[0][1] :0x00
[    7.279827] radioState->channelStates[1][0] :0x00
[    7.284523] radioState->channelStates[1][1] :0x00
[    7.289219] State Value is in loop 0x12393720
[    7.293915]  inside the arm boot wait: adi_adrv9001_arm_StartStatus_Check: Line: 146 => OUT
[    7.398306] MESSAGE:SPI READ:               arm_cmd_status_8: addr=0x010e, data=0x11
[    7.414483] arm_cmd_status_8 : adi_adrv9001_Radio_State_Get: Line: 391 :reg VAlue 0x11
[    7.414485] ###################ARM COMMAND 8###########################
[    7.422388] radioState->systemState     :0x01
[    7.428992] radioState->monitorModeState:0x00
[    7.433342] radioState->mcsState        :0x00
[    7.437690] radioState->bootState       :0x01
[    7.442073] MESSAGE:SPI READ:               arm_cmd_status_9: addr=0x010f, data=0x00
[    7.454245] arm_cmd_status_9 : adi_adrv9001_Radio_State_Get: Line: 407 :reg VAlue 0x00
[    7.454247] ###################ARM COMMAND 9###########################
[    7.462151] radioState->channelStates[0][0] :0x00
[    7.468756] radioState->channelStates[0][1] :0x00
[    7.473451] radioState->channelStates[1][0] :0x00
[    7.478147] radioState->channelStates[1][1] :0x00
[    7.482843] State Value is in loop 0x12393720
[    7.487541]  ARM booted successfully : adi_adrv9001_arm_StartStatus_Check: Line: 164 => OUT
[    7.491889] ARM: adi_adrv9001_arm_StartStatus_Check: Line: 210 => OUT
[    7.500230] adrv9001.c : function : adrv9002_digital_init: Line: 2757 => OUT
[    7.506662] adrv9001.c : function : adrv9002_radio_init: Line: 2778 => IN
[    7.514114] MESSAGE:SPI WRITE:            ARM_EXT_CMD_BYTE_1+: addr=0x0101, data=0x00
[    7.528825] MESSAGE:SPI WRITE:            ARM_EXT_CMD_BYTE_1+: addr=0x0102, data=0x8b
[    7.536754] MESSAGE:SPI WRITE:            ARM_EXT_CMD_BYTE_1+: addr=0x0103, data=0x00
[    7.544685] MESSAGE:SPI WRITE:                    ARM_COMMAND: addr=0x0100, data=0x0a
[    7.552626] MESSAGE:SPI READ:                               : addr=0x0108, data=0x00
[    7.560847] MESSAGE:SPI WRITE:            ARM_EXT_CMD_BYTE_1+: addr=0x0101, data=0x00
[    7.568788] MESSAGE:SPI WRITE:            ARM_EXT_CMD_BYTE_1+: addr=0x0102, data=0x8b
[    7.576717] MESSAGE:SPI WRITE:            ARM_EXT_CMD_BYTE_1+: addr=0x0103, data=0x01
[    7.584651] MESSAGE:SPI WRITE:                    ARM_COMMAND: addr=0x0100, data=0x0a
[    7.592588] MESSAGE:SPI READ:                               : addr=0x0108, data=0x00
[    7.600809] MESSAGE:SPI WRITE:            ARM_EXT_CMD_BYTE_1+: addr=0x0101, data=0x00
[    7.608739] MESSAGE:SPI WRITE:            ARM_EXT_CMD_BYTE_1+: addr=0x0102, data=0x8b
[    7.616672] MESSAGE:SPI WRITE:            ARM_EXT_CMD_BYTE_1+: addr=0x0103, data=0x02
[    7.624607] MESSAGE:SPI WRITE:                    ARM_COMMAND: addr=0x0100, data=0x0a
[    7.632541] MESSAGE:SPI READ:                               : addr=0x0108, data=0x00
[    7.640411] MESSAGE:SPI WRITE:            ARM_EXT_CMD_BYTE_1+: addr=0x0101, data=0x01
[    7.648345] MESSAGE:SPI WRITE:            ARM_EXT_CMD_BYTE_1+: addr=0x0102, data=0x83
[    7.656281] MESSAGE:SPI WRITE:                    ARM_COMMAND: addr=0x0100, data=0x0c
[    7.664214] MESSAGE:SPI READ:                               : addr=0x0109, data=0x00
[    7.672790] adi_adrv9001_Radio_Channel_State_Get Before 0
[    7.672819] MESSAGE:SPI READ:               arm_cmd_status_9: addr=0x010f, data=0x00
[    7.686112] ADRV9001_ADDR_ARM_CMD_STATUS_9 0
[    7.686115] ADI Rx Channel 1
[    7.690373] Radio.c
[    7.693247] adi_adrv9001_Radio_Channel_State_Get 0
[    7.695971] MESSAGE:SPI WRITE:            ARM_EXT_CMD_BYTE_1+: addr=0x0101, data=0x01
[    7.708767] MESSAGE:SPI WRITE:            ARM_EXT_CMD_BYTE_1+: addr=0x0102, data=0x83
[    7.716704] MESSAGE:SPI WRITE:                    ARM_COMMAND: addr=0x0100, data=0x0a
[    7.724635] MESSAGE:SPI READ:                               : addr=0x0108, data=0x00
[    7.732458] adrv9001.c : function : adrv9002_get_arm_clk: Line: 3176 => IN
[    7.732462] adrv9001.c : adrv9002_get_arm_clk: Line: 3179,sys clock 48*10
[    7.739330] adrv9001.c : function : adrv9002_get_arm_clk: Line: 3184 => OUT
[    7.746159] MESSAGE:SPI WRITE:            ARM_EXT_CMD_BYTE_1+: addr=0x0101, data=0x00
[    7.761044] MESSAGE:SPI WRITE:            ARM_EXT_CMD_BYTE_1+: addr=0x0102, data=0x80
[    7.768978] MESSAGE:SPI WRITE:            ARM_EXT_CMD_BYTE_1+: addr=0x0103, data=0x1a
[    7.776916] MESSAGE:SPI WRITE:                    ARM_COMMAND: addr=0x0100, data=0x0c
[    7.784849] MESSAGE:SPI READ:                               : addr=0x0109, data=0x00
[    7.793104] MESSAGE:SPI READ:               arm_cmd_status_9: addr=0x010f, data=0x00
[    7.800925] ADRV9001_ADDR_ARM_CMD_STATUS_9 0
[    7.800927] ADI Rx Channel 1
[    7.805881] MESSAGE:SPI WRITE:            ARM_EXT_CMD_BYTE_1+: addr=0x0101, data=0x01
[    7.816677] MESSAGE:SPI WRITE:            ARM_EXT_CMD_BYTE_1+: addr=0x0102, data=0x9c
[    7.824609] MESSAGE:SPI WRITE:                    ARM_COMMAND: addr=0x0100, data=0x0a
[    7.832547] MESSAGE:SPI READ:                               : addr=0x0108, data=0x00
[    7.840417] MESSAGE:SPI WRITE:            ARM_EXT_CMD_BYTE_1+: addr=0x0101, data=0x04
[    7.848358] MESSAGE:SPI WRITE:            ARM_EXT_CMD_BYTE_1+: addr=0x0102, data=0x83
[    7.856291] MESSAGE:SPI WRITE:                    ARM_COMMAND: addr=0x0100, data=0x0c
[    7.864225] MESSAGE:SPI READ:                               : addr=0x0109, data=0x00
[    7.872786] adi_adrv9001_Radio_Channel_State_Get Before 0
[    7.872813] MESSAGE:SPI READ:               arm_cmd_status_9: addr=0x010f, data=0x00
[    7.886108] ADRV9001_ADDR_ARM_CMD_STATUS_9 0
[    7.886111] ADI Tx Channel 1
[    7.890369] Radio.c
[    7.893243] adi_adrv9001_Radio_Channel_State_Get 0
[    7.895969] MESSAGE:SPI WRITE:            ARM_EXT_CMD_BYTE_1+: addr=0x0101, data=0x04
[    7.908774] MESSAGE:SPI WRITE:            ARM_EXT_CMD_BYTE_1+: addr=0x0102, data=0x83
[    7.916703] MESSAGE:SPI WRITE:                    ARM_COMMAND: addr=0x0100, data=0x0a
[    7.924641] MESSAGE:SPI READ:                               : addr=0x0108, data=0x00
[    7.932463] adrv9001.c : function : adrv9002_get_arm_clk: Line: 3176 => IN
[    7.932466] adrv9001.c : adrv9002_get_arm_clk: Line: 3179,sys clock 48*10
[    7.939335] adrv9001.c : function : adrv9002_get_arm_clk: Line: 3184 => OUT
[    7.946161] MESSAGE:SPI WRITE:            ARM_EXT_CMD_BYTE_1+: addr=0x0101, data=0x00
[    7.961039] MESSAGE:SPI WRITE:            ARM_EXT_CMD_BYTE_1+: addr=0x0102, data=0x80
[    7.968972] MESSAGE:SPI WRITE:            ARM_EXT_CMD_BYTE_1+: addr=0x0103, data=0x18
[    7.976923] MESSAGE:SPI WRITE:                    ARM_COMMAND: addr=0x0100, data=0x0c
[    7.984854] MESSAGE:SPI READ:                               : addr=0x0109, data=0x00
[    7.993107] MESSAGE:SPI READ:               arm_cmd_status_9: addr=0x010f, data=0x00
[    8.000928] ADRV9001_ADDR_ARM_CMD_STATUS_9 0
[    8.000931] ADI Tx Channel 1
[    8.005903] MESSAGE:SPI WRITE:            ARM_EXT_CMD_BYTE_1+: addr=0x0101, data=0x04
[    8.016705] MESSAGE:SPI WRITE:            ARM_EXT_CMD_BYTE_1+: addr=0x0102, data=0x9c
[    8.024641] MESSAGE:SPI WRITE:                    ARM_COMMAND: addr=0x0100, data=0x0a
[    8.032579] MESSAGE:SPI READ:                               : addr=0x0108, data=0x00
[    8.040455] MESSAGE:SPI WRITE:            ARM_EXT_CMD_BYTE_1+: addr=0x0101, data=0x02
[    8.048389] MESSAGE:SPI WRITE:            ARM_EXT_CMD_BYTE_1+: addr=0x0102, data=0x83
[    8.056323] MESSAGE:SPI WRITE:                    ARM_COMMAND: addr=0x0100, data=0x0c
[    8.064259] MESSAGE:SPI READ:                               : addr=0x0109, data=0x00
[    8.072838] adi_adrv9001_Radio_Channel_State_Get Before 0
[    8.072865] MESSAGE:SPI READ:               arm_cmd_status_9: addr=0x010f, data=0x00
[    8.086168] ADRV9001_ADDR_ARM_CMD_STATUS_9 0
[    8.086170] ADI Rx Channel 2
[    8.090427] Radio.c
[    8.093301] adi_adrv9001_Radio_Channel_State_Get 0
[    8.096021] MESSAGE:SPI WRITE:            ARM_EXT_CMD_BYTE_1+: addr=0x0101, data=0x02
[    8.108825] MESSAGE:SPI WRITE:            ARM_EXT_CMD_BYTE_1+: addr=0x0102, data=0x83
[    8.116766] MESSAGE:SPI WRITE:                    ARM_COMMAND: addr=0x0100, data=0x0a
[    8.124696] MESSAGE:SPI READ:                               : addr=0x0108, data=0x00
[    8.132520] adrv9001.c : function : adrv9002_get_arm_clk: Line: 3176 => IN
[    8.132523] adrv9001.c : adrv9002_get_arm_clk: Line: 3179,sys clock 48*10
[    8.139391] adrv9001.c : function : adrv9002_get_arm_clk: Line: 3184 => OUT
[    8.146219] MESSAGE:SPI WRITE:            ARM_EXT_CMD_BYTE_1+: addr=0x0101, data=0x00
[    8.161106] MESSAGE:SPI WRITE:            ARM_EXT_CMD_BYTE_1+: addr=0x0102, data=0x80
[    8.169041] MESSAGE:SPI WRITE:            ARM_EXT_CMD_BYTE_1+: addr=0x0103, data=0x1b
[    8.176974] MESSAGE:SPI WRITE:                    ARM_COMMAND: addr=0x0100, data=0x0c
[    8.184910] MESSAGE:SPI READ:                               : addr=0x0109, data=0x00
[    8.193093] MESSAGE:SPI READ:               arm_cmd_status_9: addr=0x010f, data=0x00
[    8.200920] ADRV9001_ADDR_ARM_CMD_STATUS_9 0
[    8.200922] ADI Rx Channel 2
[    8.205912] MESSAGE:SPI WRITE:            ARM_EXT_CMD_BYTE_1+: addr=0x0101, data=0x02
[    8.216718] MESSAGE:SPI WRITE:            ARM_EXT_CMD_BYTE_1+: addr=0x0102, data=0x9c
[    8.224654] MESSAGE:SPI WRITE:                    ARM_COMMAND: addr=0x0100, data=0x0a
[    8.232590] MESSAGE:SPI READ:                               : addr=0x0108, data=0x00
[    8.240467] MESSAGE:SPI WRITE:            ARM_EXT_CMD_BYTE_1+: addr=0x0101, data=0x08
[    8.248403] MESSAGE:SPI WRITE:            ARM_EXT_CMD_BYTE_1+: addr=0x0102, data=0x83
[    8.256336] MESSAGE:SPI WRITE:                    ARM_COMMAND: addr=0x0100, data=0x0c
[    8.264272] MESSAGE:SPI READ:                               : addr=0x0109, data=0x00
[    8.272847] adi_adrv9001_Radio_Channel_State_Get Before 0
[    8.272874] MESSAGE:SPI READ:               arm_cmd_status_9: addr=0x010f, data=0x00
[    8.286170] ADRV9001_ADDR_ARM_CMD_STATUS_9 0
[    8.286172] ADI Tx Channel 2
[    8.290430] Radio.c
[    8.293304] adi_adrv9001_Radio_Channel_State_Get 0
[    8.296023] MESSAGE:SPI WRITE:            ARM_EXT_CMD_BYTE_1+: addr=0x0101, data=0x08
[    8.308823] MESSAGE:SPI WRITE:            ARM_EXT_CMD_BYTE_1+: addr=0x0102, data=0x83
[    8.316755] MESSAGE:SPI WRITE:                    ARM_COMMAND: addr=0x0100, data=0x0a
[    8.324694] MESSAGE:SPI READ:                               : addr=0x0108, data=0x00
[    8.332515] adrv9001.c : function : adrv9002_get_arm_clk: Line: 3176 => IN
[    8.332518] adrv9001.c : adrv9002_get_arm_clk: Line: 3179,sys clock 48*10
[    8.339387] adrv9001.c : function : adrv9002_get_arm_clk: Line: 3184 => OUT
[    8.346215] MESSAGE:SPI WRITE:            ARM_EXT_CMD_BYTE_1+: addr=0x0101, data=0x00
[    8.361101] MESSAGE:SPI WRITE:            ARM_EXT_CMD_BYTE_1+: addr=0x0102, data=0x80
[    8.369045] MESSAGE:SPI WRITE:            ARM_EXT_CMD_BYTE_1+: addr=0x0103, data=0x19
[    8.376978] MESSAGE:SPI WRITE:                    ARM_COMMAND: addr=0x0100, data=0x0c
[    8.384915] MESSAGE:SPI READ:                               : addr=0x0109, data=0x00
[    8.393164] MESSAGE:SPI READ:               arm_cmd_status_9: addr=0x010f, data=0x00
[    8.400994] ADRV9001_ADDR_ARM_CMD_STATUS_9 0
[    8.400996] ADI Tx Channel 2
[    8.405958] MESSAGE:SPI WRITE:            ARM_EXT_CMD_BYTE_1+: addr=0x0101, data=0x08
[    8.416757] MESSAGE:SPI WRITE:            ARM_EXT_CMD_BYTE_1+: addr=0x0102, data=0x9c
[    8.424691] MESSAGE:SPI WRITE:                    ARM_COMMAND: addr=0x0100, data=0x0a
[    8.432630] MESSAGE:SPI READ:                               : addr=0x0108, data=0x00
[    8.440498] MESSAGE:SPI WRITE:            ARM_EXT_CMD_BYTE_1+: addr=0x0101, data=0xcf
[    8.448433] MESSAGE:SPI WRITE:            ARM_EXT_CMD_BYTE_1+: addr=0x0102, data=0x93
[    8.456365] MESSAGE:SPI WRITE:                    ARM_COMMAND: addr=0x0100, data=0x0a
[    8.464302] MESSAGE:SPI READ:                               : addr=0x0108, data=0x00
[    8.472528] MESSAGE:SPI WRITE:            ARM_EXT_CMD_BYTE_1+: addr=0x0101, data=0x00
[    8.480462] MESSAGE:SPI WRITE:            ARM_EXT_CMD_BYTE_1+: addr=0x0102, data=0x8f
[    8.488395] MESSAGE:SPI WRITE:            ARM_EXT_CMD_BYTE_1+: addr=0x0103, data=0xb2
[    8.496328] MESSAGE:SPI WRITE:            ARM_EXT_CMD_BYTE_1+: addr=0x0104, data=0x00
[    8.504270] MESSAGE:SPI WRITE:            ARM_EXT_CMD_BYTE_1+: addr=0x0105, data=0x00
[    8.512203] MESSAGE:SPI WRITE:                    ARM_COMMAND: addr=0x0100, data=0x0c
[    8.520140] MESSAGE:SPI READ:                               : addr=0x0109, data=0x00
[    8.532456] adrv9001.c : function : adrv9002_radio_init: Line: 2833 => OUT
[    8.532460] adrv9001.c : function : adrv9002_tx_set_dac_full_scale: Line: 2367 =>IN
[    8.539325] adrv9001.c : function : adrv9002_tx_set_dac_full_scale: Line: 2380 =>OUT
[    8.547527] MESSAGE:SPI WRITE:            ARM_EXT_CMD_BYTE_1+: addr=0x0101, data=0x00
[    8.563189] MESSAGE:SPI WRITE:            ARM_EXT_CMD_BYTE_1+: addr=0x0102, data=0x00
[    8.571125] MESSAGE:SPI WRITE:            ARM_EXT_CMD_BYTE_1+: addr=0x0103, data=0x00
[    8.579059] MESSAGE:SPI WRITE:                    ARM_COMMAND: addr=0x0100, data=0x02
[    8.586994] MESSAGE:SPI READ:                               : addr=0x0106, data=0x10
[    8.595856] MESSAGE:SPI READ:                               : addr=0x0106, data=0x10
[    8.604719] MESSAGE:SPI READ:                               : addr=0x0106, data=0x10
[    8.613581] MESSAGE:SPI READ:                               : addr=0x0106, data=0x10
[    8.622446] MESSAGE:SPI READ:                               : addr=0x0106, data=0x10
[    8.631316] MESSAGE:SPI READ:                               : addr=0x0106, data=0x10
[    8.640177] MESSAGE:SPI READ:                               : addr=0x0106, data=0x10
[    8.649039] MESSAGE:SPI READ:                               : addr=0x0106, data=0x10
[    8.657903] MESSAGE:SPI READ:                               : addr=0x0106, data=0x10
[    8.666764] MESSAGE:SPI READ:                               : addr=0x0106, data=0x10
[    8.675625] MESSAGE:SPI READ:                               : addr=0x0106, data=0x10
[    8.684487] MESSAGE:SPI READ:                               : addr=0x0106, data=0x10
[    8.693350] MESSAGE:SPI READ:                               : addr=0x0106, data=0x10
[    8.702213] MESSAGE:SPI READ:                               : addr=0x0106, data=0x10
[    8.711074] MESSAGE:SPI READ:                               : addr=0x0106, data=0x10
[    8.719937] MESSAGE:SPI READ:                               : addr=0x0106, data=0x10
[    8.728802] MESSAGE:SPI READ:                               : addr=0x0106, data=0x10
[    8.737660] MESSAGE:SPI READ:                               : addr=0x0106, data=0x10
[    8.746524] MESSAGE:SPI READ:                               : addr=0x0106, data=0x10
[    8.755385] MESSAGE:SPI READ:                               : addr=0x0106, data=0x10
[    8.764250] MESSAGE:SPI READ:                               : addr=0x0106, data=0x10
[    8.773111] MESSAGE:SPI READ:                               : addr=0x0106, data=0x10
[    8.781975] MESSAGE:SPI READ:                               : addr=0x0106, data=0x10
[    8.790835] MESSAGE:SPI READ:                               : addr=0x0106, data=0x10
[    8.799698] MESSAGE:SPI READ:                               : addr=0x0106, data=0x10
[    8.808559] MESSAGE:SPI READ:                               : addr=0x0106, data=0x10
[    8.817422] MESSAGE:SPI READ:                               : addr=0x0106, data=0x10
[    8.826280] MESSAGE:SPI READ:                               : addr=0x0106, data=0x10
[    8.835147] MESSAGE:SPI READ:                               : addr=0x0106, data=0x10
[    8.844009] MESSAGE:SPI READ:                               : addr=0x0106, data=0x10
[    8.852871] MESSAGE:SPI READ:                               : addr=0x0106, data=0x10
[    8.861733] MESSAGE:SPI READ:                               : addr=0x0106, data=0x10
[    8.870596] MESSAGE:SPI READ:                               : addr=0x0106, data=0x10
[    8.879457] MESSAGE:SPI READ:                               : addr=0x0106, data=0x10
[    8.888320] MESSAGE:SPI READ:                               : addr=0x0106, data=0x10
[    8.897183] MESSAGE:SPI READ:                               : addr=0x0106, data=0x10
[    8.906047] MESSAGE:SPI READ:                               : addr=0x0106, data=0x10
[    8.914907] MESSAGE:SPI READ:                               : addr=0x0106, data=0x10
[    8.923769] MESSAGE:SPI READ:                               : addr=0x0106, data=0x10
[    8.932627] MESSAGE:SPI READ:                               : addr=0x0106, data=0x10
[    8.941502] MESSAGE:SPI READ:                               : addr=0x0106, data=0x10
[    8.950365] MESSAGE:SPI READ:                               : addr=0x0106, data=0x10
[    8.959227] MESSAGE:SPI READ:                               : addr=0x0106, data=0x10
[    8.968088] MESSAGE:SPI READ:                               : addr=0x0106, data=0x10
[    8.976950] MESSAGE:SPI READ:                               : addr=0x0106, data=0x10
[    8.985814] MESSAGE:SPI READ:                               : addr=0x0106, data=0x10
[    8.994675] MESSAGE:SPI READ:                               : addr=0x0106, data=0x10
[    9.003538] MESSAGE:SPI READ:                               : addr=0x0106, data=0x10
[    9.012398] MESSAGE:SPI READ:                               : addr=0x0106, data=0x10
[    9.021263] MESSAGE:SPI READ:                               : addr=0x0106, data=0x10
[    9.030129] MESSAGE:SPI READ:                               : addr=0x0106, data=0x10
[    9.038992] MESSAGE:SPI READ:                               : addr=0x0106, data=0x10
[    9.047863] MESSAGE:SPI READ:                               : addr=0x0106, data=0x10
[    9.056730] MESSAGE:SPI READ:                               : addr=0x0106, data=0x10
[    9.065592] MESSAGE:SPI READ:                               : addr=0x0106, data=0x10
[    9.074453] MESSAGE:SPI READ:                               : addr=0x0106, data=0x10
[    9.083317] MESSAGE:SPI READ:                               : addr=0x0106, data=0x10
[    9.092178] MESSAGE:SPI READ:                               : addr=0x0106, data=0x10
[    9.101041] MESSAGE:SPI READ:                               : addr=0x0106, data=0x10
[    9.109903] MESSAGE:SPI READ:                               : addr=0x0106, data=0x10
[    9.118766] MESSAGE:SPI READ:                               : addr=0x0106, data=0x10
[    9.127627] MESSAGE:SPI READ:                               : addr=0x0106, data=0x10
[    9.136489] MESSAGE:SPI READ:                               : addr=0x0106, data=0x10
[    9.145350] MESSAGE:SPI READ:                               : addr=0x0106, data=0x10
[    9.154220] MESSAGE:SPI READ:                               : addr=0x0106, data=0x10
[    9.163086] MESSAGE:SPI READ:                               : addr=0x0106, data=0x10
[    9.171948] MESSAGE:SPI READ:                               : addr=0x0106, data=0x10
[    9.180810] MESSAGE:SPI READ:                               : addr=0x0106, data=0x10
[    9.189672] MESSAGE:SPI READ:                               : addr=0x0106, data=0x10
[    9.198535] MESSAGE:SPI READ:                               : addr=0x0106, data=0x10
[    9.207396] MESSAGE:SPI READ:                               : addr=0x0106, data=0x10
[    9.216259] MESSAGE:SPI READ:                               : addr=0x0106, data=0x10
[    9.225121] MESSAGE:SPI READ:                               : addr=0x0106, data=0x10
[    9.233984] MESSAGE:SPI READ:                               : addr=0x0106, data=0x10
[    9.242846] MESSAGE:SPI READ:                               : addr=0x0106, data=0x10
[    9.251706] MESSAGE:SPI READ:                               : addr=0x0106, data=0x10
[    9.260574] MESSAGE:SPI READ:                               : addr=0x0106, data=0x10
[    9.269442] MESSAGE:SPI READ:                               : addr=0x0106, data=0x10
[    9.278306] MESSAGE:SPI READ:                               : addr=0x0106, data=0x10
[    9.287166] MESSAGE:SPI READ:                               : addr=0x0106, data=0x10
[    9.296029] MESSAGE:SPI READ:                               : addr=0x0106, data=0x10
[    9.304891] MESSAGE:SPI READ:                               : addr=0x0106, data=0x10
[    9.313753] MESSAGE:SPI READ:                               : addr=0x0106, data=0x10
[    9.322615] MESSAGE:SPI READ:                               : addr=0x0106, data=0x10
[    9.331478] MESSAGE:SPI READ:                               : addr=0x0106, data=0x10
[    9.340339] MESSAGE:SPI READ:                               : addr=0x0106, data=0x10
[    9.349202] MESSAGE:SPI READ:                               : addr=0x0106, data=0x10
[    9.358061] MESSAGE:SPI READ:                               : addr=0x0106, data=0x10
[    9.366928] MESSAGE:SPI READ:                               : addr=0x0106, data=0x10
[    9.375789] MESSAGE:SPI READ:                               : addr=0x0106, data=0x10
[    9.384651] MESSAGE:SPI READ:                               : addr=0x0106, data=0x10
[    9.393513] MESSAGE:SPI READ:                               : addr=0x0106, data=0x10
[    9.402379] MESSAGE:SPI READ:                               : addr=0x0106, data=0x10
[    9.411246] MESSAGE:SPI READ:                               : addr=0x0106, data=0x10
[    9.420109] MESSAGE:SPI READ:                               : addr=0x0106, data=0x10
[    9.428973] MESSAGE:SPI READ:                               : addr=0x0106, data=0x10
[    9.437834] MESSAGE:SPI READ:                               : addr=0x0106, data=0x10
[    9.446695] MESSAGE:SPI READ:                               : addr=0x0106, data=0x10
[    9.455557] MESSAGE:SPI READ:                               : addr=0x0106, data=0x10
[    9.464419] MESSAGE:SPI READ:                               : addr=0x0106, data=0x10
[    9.473286] MESSAGE:SPI READ:                               : addr=0x0106, data=0x10
[    9.482154] MESSAGE:SPI READ:                               : addr=0x0106, data=0x10
[    9.491015] MESSAGE:SPI READ:                               : addr=0x0106, data=0x10
[    9.499878] MESSAGE:SPI READ:                               : addr=0x0106, data=0x10
[    9.508739] MESSAGE:SPI READ:                               : addr=0x0106, data=0x10
[    9.517603] MESSAGE:SPI READ:                               : addr=0x0106, data=0x10
[    9.526467] MESSAGE:SPI READ:                               : addr=0x0106, data=0x10
[    9.535327] MESSAGE:SPI READ:                               : addr=0x0106, data=0x10
[    9.544190] MESSAGE:SPI READ:                               : addr=0x0106, data=0x10
[    9.553052] MESSAGE:SPI READ:                               : addr=0x0106, data=0x10
[    9.561915] MESSAGE:SPI READ:                               : addr=0x0106, data=0x10
[    9.570773] MESSAGE:SPI READ:                               : addr=0x0106, data=0x10
[    9.579642] MESSAGE:SPI READ:                               : addr=0x0106, data=0x10
[    9.588510] MESSAGE:SPI READ:                               : addr=0x0106, data=0x10
[    9.597372] MESSAGE:SPI READ:                               : addr=0x0106, data=0x10
[    9.606234] MESSAGE:SPI READ:                               : addr=0x0106, data=0x10
[    9.615098] MESSAGE:SPI READ:                               : addr=0x0106, data=0x10
[    9.623958] MESSAGE:SPI READ:                               : addr=0x0106, data=0x10
[    9.632822] MESSAGE:SPI READ:                               : addr=0x0106, data=0x10
[    9.641684] MESSAGE:SPI READ:                               : addr=0x0106, data=0x10
[    9.650549] MESSAGE:SPI READ:                               : addr=0x0106, data=0x10
[    9.659416] MESSAGE:SPI READ:                               : addr=0x0106, data=0x10
[    9.668278] MESSAGE:SPI READ:                               : addr=0x0106, data=0x10
[    9.677139] MESSAGE:SPI READ:                               : addr=0x0106, data=0x10
[    9.686006] MESSAGE:SPI READ:                               : addr=0x0106, data=0x10
[    9.694867] MESSAGE:SPI READ:                               : addr=0x0106, data=0x10
[    9.703729] MESSAGE:SPI READ:                               : addr=0x0106, data=0x10
[    9.712590] MESSAGE:SPI READ:                               : addr=0x0106, data=0x10
[    9.721453] MESSAGE:SPI READ:                               : addr=0x0106, data=0x10
[    9.730315] MESSAGE:SPI READ:                               : addr=0x0106, data=0x10
[    9.739176] MESSAGE:SPI READ:                               : addr=0x0106, data=0x10
[    9.748040] MESSAGE:SPI READ:                               : addr=0x0106, data=0x10
[    9.756902] MESSAGE:SPI READ:                               : addr=0x0106, data=0x10
[    9.765761] MESSAGE:SPI READ:                               : addr=0x0106, data=0x10
[    9.774629] MESSAGE:SPI READ:                               : addr=0x0106, data=0x10
[    9.783488] MESSAGE:SPI READ:                               : addr=0x0106, data=0x10
[    9.792354] MESSAGE:SPI READ:                               : addr=0x0106, data=0x10
[    9.801223] MESSAGE:SPI READ:                               : addr=0x0106, data=0x10
[    9.810083] MESSAGE:SPI READ:                               : addr=0x0106, data=0x10
[    9.818946] MESSAGE:SPI READ:                               : addr=0x0106, data=0x10
[    9.827810] MESSAGE:SPI READ:                               : addr=0x0106, data=0x10
[    9.836671] MESSAGE:SPI READ:                               : addr=0x0106, data=0x10
[    9.845533] MESSAGE:SPI READ:                               : addr=0x0106, data=0x10
[    9.854396] MESSAGE:SPI READ:                               : addr=0x0106, data=0x10
[    9.863258] MESSAGE:SPI READ:                               : addr=0x0106, data=0x10
[    9.872120] MESSAGE:SPI READ:                               : addr=0x0106, data=0x10
[    9.880982] MESSAGE:SPI READ:                               : addr=0x0106, data=0x10
[    9.889841] MESSAGE:SPI READ:                               : addr=0x0106, data=0x10
[    9.898711] MESSAGE:SPI READ:                               : addr=0x0106, data=0x10
[    9.907578] MESSAGE:SPI READ:                               : addr=0x0106, data=0x10
[    9.916440] MESSAGE:SPI READ:                               : addr=0x0106, data=0x10
[    9.925303] MESSAGE:SPI READ:                               : addr=0x0106, data=0x10
[    9.934165] MESSAGE:SPI READ:                               : addr=0x0106, data=0x10
[    9.943027] MESSAGE:SPI READ:                               : addr=0x0106, data=0x10
[    9.951889] MESSAGE:SPI READ:                               : addr=0x0106, data=0x10
[    9.960752] MESSAGE:SPI READ:                               : addr=0x0106, data=0x10
[    9.969615] MESSAGE:SPI READ:                               : addr=0x0106, data=0x10
[    9.978475] MESSAGE:SPI READ:                               : addr=0x0106, data=0x10
[    9.987338] MESSAGE:SPI READ:                               : addr=0x0106, data=0x10
[    9.996202] MESSAGE:SPI READ:                               : addr=0x0106, data=0x10
[   10.005069] MESSAGE:SPI READ:                               : addr=0x0106, data=0x10
[   10.013934] MESSAGE:SPI READ:                               : addr=0x0106, data=0x10
[   10.022795] MESSAGE:SPI READ:                               : addr=0x0106, data=0x10
[   10.031658] MESSAGE:SPI READ:                               : addr=0x0106, data=0x10
[   10.040518] MESSAGE:SPI READ:                               : addr=0x0106, data=0x10
[   10.049383] MESSAGE:SPI READ:                               : addr=0x0106, data=0x10
[   10.058247] MESSAGE:SPI READ:                               : addr=0x0106, data=0x10
[   10.067107] MESSAGE:SPI READ:                               : addr=0x0106, data=0x10
[   10.075970] MESSAGE:SPI READ:                               : addr=0x0106, data=0x10
[   10.084832] MESSAGE:SPI READ:                               : addr=0x0106, data=0x10
[   10.093697] MESSAGE:SPI READ:                               : addr=0x0106, data=0x10
[   10.102553] MESSAGE:SPI READ:                               : addr=0x0106, data=0x10
[   10.111421] MESSAGE:SPI READ:                               : addr=0x0106, data=0x10
[   10.120281] MESSAGE:SPI READ:                               : addr=0x0106, data=0x10
[   10.129143] MESSAGE:SPI READ:                               : addr=0x0106, data=0x10
[   10.138005] MESSAGE:SPI READ:                               : addr=0x0106, data=0x10
[   10.146868] MESSAGE:SPI READ:                               : addr=0x0106, data=0x10
[   10.155730] MESSAGE:SPI READ:                               : addr=0x0106, data=0x10
[   10.164592] MESSAGE:SPI READ:                               : addr=0x0106, data=0x10
[   10.173455] MESSAGE:SPI READ:                               : addr=0x0106, data=0x10
[   10.182320] MESSAGE:SPI READ:                               : addr=0x0106, data=0x10
[   10.191188] MESSAGE:SPI READ:                               : addr=0x0106, data=0x10
[   10.200050] MESSAGE:SPI READ:                               : addr=0x0106, data=0x10
[   10.208910] MESSAGE:SPI READ:                               : addr=0x0106, data=0x10
[   10.217779] MESSAGE:SPI READ:                               : addr=0x0106, data=0x10
[   10.226647] MESSAGE:SPI READ:                               : addr=0x0106, data=0x10
[   10.235509] MESSAGE:SPI READ:                               : addr=0x0106, data=0x10
[   10.244370] MESSAGE:SPI READ:                               : addr=0x0106, data=0x10
[   10.253233] MESSAGE:SPI READ:                               : addr=0x0106, data=0x10
[   10.262095] MESSAGE:SPI READ:                               : addr=0x0106, data=0x10
[   10.270957] MESSAGE:SPI READ:                               : addr=0x0106, data=0x10
[   10.279819] MESSAGE:SPI READ:                               : addr=0x0106, data=0x10
[   10.288681] MESSAGE:SPI READ:                               : addr=0x0106, data=0x10
[   10.297543] MESSAGE:SPI READ:                               : addr=0x0106, data=0x10
[   10.306408] MESSAGE:SPI READ:                               : addr=0x0106, data=0x10
[   10.315264] MESSAGE:SPI READ:                               : addr=0x0106, data=0x10
[   10.324133] MESSAGE:SPI READ:                               : addr=0x0106, data=0x10
[   10.332994] MESSAGE:SPI READ:                               : addr=0x0106, data=0x10
[   10.341855] MESSAGE:SPI READ:                               : addr=0x0106, data=0x10
[   10.350717] MESSAGE:SPI READ:                               : addr=0x0106, data=0x10
[   10.359581] MESSAGE:SPI READ:                               : addr=0x0106, data=0x10
[   10.368442] MESSAGE:SPI READ:                               : addr=0x0106, data=0x10
[   10.377304] MESSAGE:SPI READ:                               : addr=0x0106, data=0x10
[   10.386166] MESSAGE:SPI READ:                               : addr=0x0106, data=0x10
[   10.395028] MESSAGE:SPI READ:                               : addr=0x0106, data=0x10
[   10.403891] MESSAGE:SPI READ:                               : addr=0x0106, data=0x10
[   10.412753] MESSAGE:SPI READ:                               : addr=0x0106, data=0x10
[   10.421614] MESSAGE:SPI READ:                               : addr=0x0106, data=0x10
[   10.430483] MESSAGE:SPI READ:                               : addr=0x0106, data=0x10
[   10.439349] MESSAGE:SPI READ:                               : addr=0x0106, data=0x10
[   10.448211] MESSAGE:SPI READ:                               : addr=0x0106, data=0x10
[   10.457074] MESSAGE:SPI READ:                               : addr=0x0106, data=0x10
[   10.465937] MESSAGE:SPI READ:                               : addr=0x0106, data=0x10
[   10.474798] MESSAGE:SPI READ:                               : addr=0x0106, data=0x10
[   10.483660] MESSAGE:SPI READ:                               : addr=0x0106, data=0x10
[   10.492525] MESSAGE:SPI READ:                               : addr=0x0106, data=0x10
[   10.501384] MESSAGE:SPI READ:                               : addr=0x0106, data=0x10
[   10.510248] MESSAGE:SPI READ:                               : addr=0x0106, data=0x10
[   10.519109] MESSAGE:SPI READ:                               : addr=0x0106, data=0x10
[   10.527973] MESSAGE:SPI READ:                               : addr=0x0106, data=0x10
[   10.536837] MESSAGE:SPI READ:                               : addr=0x0106, data=0x10
[   10.545706] MESSAGE:SPI READ:                               : addr=0x0106, data=0x10
[   10.554571] MESSAGE:SPI READ:                               : addr=0x0106, data=0x10
[   10.563438] MESSAGE:SPI READ:                               : addr=0x0106, data=0x10
[   10.572299] MESSAGE:SPI READ:                               : addr=0x0106, data=0x10
[   10.581164] MESSAGE:SPI READ:                               : addr=0x0106, data=0x10
[   10.590025] MESSAGE:SPI READ:                               : addr=0x0106, data=0x10
[   10.598888] MESSAGE:SPI READ:                               : addr=0x0106, data=0x10
[   10.607751] MESSAGE:SPI READ:                               : addr=0x0106, data=0x10
[   10.616612] MESSAGE:SPI READ:                               : addr=0x0106, data=0x10
[   10.625478] MESSAGE:SPI READ:                               : addr=0x0106, data=0x10
[   10.634342] MESSAGE:SPI READ:                               : addr=0x0106, data=0x10
[   10.643211] MESSAGE:SPI READ:                               : addr=0x0106, data=0x10
[   10.652080] MESSAGE:SPI READ:                               : addr=0x0106, data=0x10
[   10.660941] MESSAGE:SPI READ:                               : addr=0x0106, data=0x10
[   10.669806] MESSAGE:SPI READ:                               : addr=0x0106, data=0x10
[   10.678669] MESSAGE:SPI READ:                               : addr=0x0106, data=0x10
[   10.687536] MESSAGE:SPI READ:                               : addr=0x0106, data=0x10
[   10.696399] MESSAGE:SPI READ:                               : addr=0x0106, data=0x10
[   10.705261] MESSAGE:SPI READ:                               : addr=0x0106, data=0x10
[   10.714124] MESSAGE:SPI READ:                               : addr=0x0106, data=0x10
[   10.722986] MESSAGE:SPI READ:                               : addr=0x0106, data=0x10
[   10.731847] MESSAGE:SPI READ:                               : addr=0x0106, data=0x10
[   10.740710] MESSAGE:SPI READ:                               : addr=0x0106, data=0x10
[   10.749576] MESSAGE:SPI READ:                               : addr=0x0106, data=0x10
[   10.758445] MESSAGE:SPI READ:                               : addr=0x0106, data=0x10
[   10.767306] MESSAGE:SPI READ:                               : addr=0x0106, data=0x10
[   10.776168] MESSAGE:SPI READ:                               : addr=0x0106, data=0x10
