

Xilinx Zynq MP First Stage Boot Loader
Release 2021.1   Jun  6 2021  -  07:07:32
NOTICE:  ATF running on XCZU9EG/silicon v4/RTL5.1 at 0xfffea000
NOTICE:  BL31: v2.4(release):xlnx_rebase_v2.4_2021.1_update1
NOTICE:  BL31: Built : 08:27:07, Apr 28 2021


U-Boot 2021.01 (Jun 01 2021 - 11:54:06 +0000)

Board: Xilinx ZynqMP
DRAM:  2 GiB
PMUFW:  v1.1
EL Level:       EL2
Chip ID:        zu9eg
NAND:  ERROR:arasan_nand_reset timedout
ERROR:arasan_nand_cmd_function:command:0xff
ERROR:arasan_nand_read_buf timedout:Buff RDY
ERROR:arasan_nand_read_buf timedout:Xfer CMPLT
2048 MiB
MMC:
Loading Environment from SPIFlash... SF: Detected mt25qu02g with page size 256 Bytes, erase size 64 KiB, total 256 MiB
*** Warning - bad CRC, using default environment

In:    serial
Out:   serial
Err:   serial
Bootmode: QSPI_MODE
Reset reason:   EXTERNAL
Net:
ZYNQ GEM: ff0d0000, mdio bus ff0d0000, phyaddr -1, interface rgmii-id
ZYNQ GEM: requesting PHY reset gpio 70

Warning: ethernet@ff0d0000 (eth0) using random MAC address - 76:92:10:f3:f7:00
eth0: ethernet@ff0d0000
Hit any key to stop autoboot:  0
SF: Detected mt25qu02g with page size 256 Bytes, erase size 64 KiB, total 256 MiB
device 0 offset 0x3e80000, size 0x80000
SF: 524288 bytes @ 0x3e80000 Read: OK
QSPI: Trying to boot script at 20000000
## Executing script at 20000000
Trying to load boot images from qspi0
SF: Detected mt25qu02g with page size 256 Bytes, erase size 64 KiB, total 256 MiB
device 0 offset 0x3f00000, size 0x3700000
SF: 57671680 bytes @ 0x3f00000 Read: OK
## Loading kernel from FIT Image at 10000000 ...
   Using 'conf-system-top.dtb' configuration
   Trying 'kernel-1' kernel subimage
     Description:  Linux kernel
     Created:      2022-05-27  12:41:11 UTC
     Type:         Kernel Image
     Compression:  gzip compressed
     Data Start:   0x10000100
     Data Size:    11165684 Bytes = 10.6 MiB
     Architecture: AArch64
     OS:           Linux
     Load Address: 0x00080000
     Entry Point:  0x00080000
     Hash algo:    sha256
     Hash value:   2e043353597006b1b8013a1421f23a2c6dbc5436a3dd14649a826444306b4b42
   Verifying Hash Integrity ... sha256+ OK
## Loading ramdisk from FIT Image at 10000000 ...
   Using 'conf-system-top.dtb' configuration
   Trying 'ramdisk-1' ramdisk subimage
     Description:  petalinux-image-minimal
     Created:      2022-05-27  12:41:11 UTC
     Type:         RAMDisk Image
     Compression:  uncompressed
     Data Start:   0x10ab08f4
     Data Size:    45093528 Bytes = 43 MiB
     Architecture: AArch64
     OS:           Linux
     Load Address: unavailable
     Entry Point:  unavailable
     Hash algo:    sha256
     Hash value:   8415415c1325cfef3b68ca84e4b9832399d8ecd2d3586fde91c044e64289b82b
   Verifying Hash Integrity ... sha256+ OK
## Loading fdt from FIT Image at 10000000 ...
   Using 'conf-system-top.dtb' configuration
   Trying 'fdt-system-top.dtb' fdt subimage
     Description:  Flattened Device Tree blob
     Created:      2022-05-27  12:41:11 UTC
     Type:         Flat Device Tree
     Compression:  uncompressed
     Data Start:   0x10aa6204
     Data Size:    42528 Bytes = 41.5 KiB
     Architecture: AArch64
     Hash algo:    sha256
     Hash value:   6e7d5915d8f4484331b1b33ab9d35b6ed047834cffbfdc9b81a2f138db837556
   Verifying Hash Integrity ... sha256+ OK
   Booting using the fdt blob at 0x10aa6204
   Uncompressing Kernel Image
   Loading Ramdisk to 7b211000, end 7dd12298 ... OK
   Loading Device Tree to 000000007b203000, end 000000007b21061f ... OK

Starting kernel ...

[    0.000000] Booting Linux on physical CPU 0x0000000000 [0x410fd034]
[    0.000000] Linux version 5.10.0-xilinx-v2021.1 (oe-user@oe-host) (aarch64-xilinx-linux-gcc (GCC) 10.2.0, GNU ld (GNU Binutils) 2.35.1) #1 SMP Fri May 27 12:41:11 UTC 2022
[    0.000000] Machine model: xlnx,zynqmp
[    0.000000] earlycon: cdns0 at MMIO 0x00000000ff010000 (options '115200n8')
[    0.000000] printk: bootconsole [cdns0] enabled
[    0.000000] efi: UEFI not found.
[    0.000000] [Firmware Bug]: Kernel image misaligned at boot, please fix your bootloader!
[    0.000000] cma: Reserved 256 MiB at 0x000000006b000000
[    0.000000] Zone ranges:
[    0.000000]   DMA      [mem 0x0000000000000000-0x000000003fffffff]
[    0.000000]   DMA32    [mem 0x0000000040000000-0x000000007fefffff]
[    0.000000]   Normal   empty
[    0.000000] Movable zone start for each node
[    0.000000] Early memory node ranges
[    0.000000]   node   0: [mem 0x0000000000000000-0x000000007fefffff]
[    0.000000] Zeroed struct page in unavailable ranges: 256 pages
[    0.000000] Initmem setup node 0 [mem 0x0000000000000000-0x000000007fefffff]
[    0.000000] psci: probing for conduit method from DT.
[    0.000000] psci: PSCIv1.1 detected in firmware.
[    0.000000] psci: Using standard PSCI v0.2 function IDs
[    0.000000] psci: MIGRATE_INFO_TYPE not supported.
[    0.000000] psci: SMC Calling Convention v1.2
[    0.000000] percpu: Embedded 22 pages/cpu s50968 r8192 d30952 u90112
[    0.000000] Detected VIPT I-cache on CPU0
[    0.000000] CPU features: detected: ARM erratum 845719
[    0.000000] Built 1 zonelists, mobility grouping on.  Total pages: 515844
[    0.000000] Kernel command line: earlycon console=ttyPS0,115200 clk_ignore_unused init_fatal_sh=1
[    0.000000] Dentry cache hash table entries: 262144 (order: 9, 2097152 bytes, linear)
[    0.000000] Inode-cache hash table entries: 131072 (order: 8, 1048576 bytes, linear)
[    0.000000] mem auto-init: stack:off, heap alloc:off, heap free:off
[    0.000000] software IO TLB: mapped [mem 0x000000003bfff000-0x000000003ffff000] (64MB)
[    0.000000] Memory: 1650436K/2096128K available (16000K kernel code, 1722K rwdata, 12036K rodata, 2624K init, 516K bss, 183548K reserved, 262144K cma-reserved)
[    0.000000] rcu: Hierarchical RCU implementation.
[    0.000000] rcu:     RCU event tracing is enabled.
[    0.000000] rcu:     RCU restricting CPUs from NR_CPUS=8 to nr_cpu_ids=4.
[    0.000000] rcu: RCU calculated value of scheduler-enlistment delay is 25 jiffies.
[    0.000000] rcu: Adjusting geometry for rcu_fanout_leaf=16, nr_cpu_ids=4
[    0.000000] NR_IRQS: 64, nr_irqs: 64, preallocated irqs: 0
[    0.000000] GIC: Adjusting CPU interface base to 0x00000000f902f000
[    0.000000] GIC: Using split EOI/Deactivate mode
[    0.000000] random: get_random_bytes called from start_kernel+0x31c/0x524 with crng_init=0
[    0.000000] arch_timer: cp15 timer(s) running at 100.00MHz (phys).
[    0.000000] clocksource: arch_sys_counter: mask: 0xffffffffffffff max_cycles: 0x171024e7e0, max_idle_ns: 440795205315 ns
[    0.000003] sched_clock: 56 bits at 100MHz, resolution 10ns, wraps every 4398046511100ns
[    0.008448] Console: colour dummy device 80x25
[    0.012482] Calibrating delay loop (skipped), value calculated using timer frequency.. 200.00 BogoMIPS (lpj=400000)
[    0.022841] pid_max: default: 32768 minimum: 301
[    0.027594] Mount-cache hash table entries: 4096 (order: 3, 32768 bytes, linear)
[    0.034786] Mountpoint-cache hash table entries: 4096 (order: 3, 32768 bytes, linear)
[    0.043636] rcu: Hierarchical SRCU implementation.
[    0.047535] EFI services will not be available.
[    0.051964] smp: Bringing up secondary CPUs ...
[    0.056700] Detected VIPT I-cache on CPU1
[    0.056743] CPU1: Booted secondary processor 0x0000000001 [0x410fd034]
[    0.057151] Detected VIPT I-cache on CPU2
[    0.057176] CPU2: Booted secondary processor 0x0000000002 [0x410fd034]
[    0.057553] Detected VIPT I-cache on CPU3
[    0.057576] CPU3: Booted secondary processor 0x0000000003 [0x410fd034]
[    0.057628] smp: Brought up 1 node, 4 CPUs
[    0.091780] SMP: Total of 4 processors activated.
[    0.096452] CPU features: detected: 32-bit EL0 Support
[    0.101556] CPU features: detected: CRC32 instructions
[    0.106693] CPU: All CPU(s) started at EL2
[    0.110736] alternatives: patching kernel code
[    0.116220] devtmpfs: initialized
[    0.122799] Registered cp15_barrier emulation handler
[    0.123451] Registered setend emulation handler
[    0.128057] clocksource: jiffies: mask: 0xffffffff max_cycles: 0xffffffff, max_idle_ns: 7645041785100000 ns
[    0.137636] futex hash table entries: 1024 (order: 4, 65536 bytes, linear)
[    0.150511] pinctrl core: initialized pinctrl subsystem
[    0.151207] NET: Registered protocol family 16
[    0.155907] DMA: preallocated 256 KiB GFP_KERNEL pool for atomic allocations
[    0.161575] DMA: preallocated 256 KiB GFP_KERNEL|GFP_DMA pool for atomic allocations
[    0.169309] DMA: preallocated 256 KiB GFP_KERNEL|GFP_DMA32 pool for atomic allocations
[    0.177139] audit: initializing netlink subsys (disabled)
[    0.182541] audit: type=2000 audit(0.116:1): state=initialized audit_enabled=0 res=1
[    0.190177] cpuidle: using governor menu
[    0.194117] hw-breakpoint: found 6 breakpoint and 4 watchpoint registers.
[    0.200855] ASID allocator initialised with 65536 entries
[    0.224329] HugeTLB registered 1.00 GiB page size, pre-allocated 0 pages
[    0.225385] HugeTLB registered 32.0 MiB page size, pre-allocated 0 pages
[    0.232054] HugeTLB registered 2.00 MiB page size, pre-allocated 0 pages
[    0.238720] HugeTLB registered 64.0 KiB page size, pre-allocated 0 pages
[    1.304534] DRBG: Continuing without Jitter RNG
[    1.382192] raid6: neonx8   gen()  2146 MB/s
[    1.450251] raid6: neonx8   xor()  1597 MB/s
[    1.518323] raid6: neonx4   gen()  2187 MB/s
[    1.586375] raid6: neonx4   xor()  1562 MB/s
[    1.654447] raid6: neonx2   gen()  2078 MB/s
[    1.722501] raid6: neonx2   xor()  1430 MB/s
[    1.790581] raid6: neonx1   gen()  1775 MB/s
[    1.858632] raid6: neonx1   xor()  1220 MB/s
[    1.926691] raid6: int64x8  gen()  1438 MB/s
[    1.994758] raid6: int64x8  xor()   771 MB/s
[    2.062823] raid6: int64x4  gen()  1601 MB/s
[    2.130885] raid6: int64x4  xor()   818 MB/s
[    2.198964] raid6: int64x2  gen()  1397 MB/s
[    2.267031] raid6: int64x2  xor()   749 MB/s
[    2.335096] raid6: int64x1  gen()  1033 MB/s
[    2.403167] raid6: int64x1  xor()   517 MB/s
[    2.403205] raid6: using algorithm neonx4 gen() 2187 MB/s
[    2.407160] raid6: .... xor() 1562 MB/s, rmw enabled
[    2.412091] raid6: using neon recovery algorithm
[    2.417105] iommu: Default domain type: Translated
[    2.421746] SCSI subsystem initialized
[    2.425389] usbcore: registered new interface driver usbfs
[    2.430719] usbcore: registered new interface driver hub
[    2.435994] usbcore: registered new device driver usb
[    2.441111] mc: Linux media interface: v0.10
[    2.445239] videodev: Linux video capture interface: v2.00
[    2.450732] EDAC MC: Ver: 3.0.0
[    2.454174] zynqmp-ipi-mbox mailbox@ff990400: Registered ZynqMP IPI mbox with TX/RX channels.
[    2.462553] jesd204: found 0 devices and 0 topologies
[    2.467307] FPGA manager framework
[    2.470775] Advanced Linux Sound Architecture Driver Initialized.
[    2.477097] Bluetooth: Core ver 2.22
[    2.480265] NET: Registered protocol family 31
[    2.484666] Bluetooth: HCI device and connection manager initialized
[    2.490982] Bluetooth: HCI socket layer initialized
[    2.495824] Bluetooth: L2CAP socket layer initialized
[    2.500848] Bluetooth: SCO socket layer initialized
[    2.506005] clocksource: Switched to clocksource arch_sys_counter
[    2.511880] VFS: Disk quotas dquot_6.6.0
[    2.515686] VFS: Dquot-cache hash table entries: 512 (order 0, 4096 bytes)
[    2.526626] NET: Registered protocol family 2
[    2.527140] tcp_listen_portaddr_hash hash table entries: 1024 (order: 2, 16384 bytes, linear)
[    2.535295] TCP established hash table entries: 16384 (order: 5, 131072 bytes, linear)
[    2.543242] TCP bind hash table entries: 16384 (order: 6, 262144 bytes, linear)
[    2.550605] TCP: Hash tables configured (established 16384 bind 16384)
[    2.556962] UDP hash table entries: 1024 (order: 3, 32768 bytes, linear)
[    2.563591] UDP-Lite hash table entries: 1024 (order: 3, 32768 bytes, linear)
[    2.570767] NET: Registered protocol family 1
[    2.575259] RPC: Registered named UNIX socket transport module.
[    2.580863] RPC: Registered udp transport module.
[    2.585527] RPC: Registered tcp transport module.
[    2.590195] RPC: Registered tcp NFSv4.1 backchannel transport module.
[    2.597195] PCI: CLS 0 bytes, default 64
[    2.600597] Trying to unpack rootfs image as initramfs...
[    4.805566] Freeing initrd memory: 44036K
[    4.806176] hw perfevents: no interrupt-affinity property for /pmu, guessing.
[    4.811231] hw perfevents: enabled with armv8_pmuv3 PMU driver, 7 counters available
[    4.819639] Initialise system trusted keyrings
[    4.823306] workingset: timestamp_bits=46 max_order=19 bucket_order=0
[    4.830273] NFS: Registering the id_resolver key type
[    4.834580] Key type id_resolver registered
[    4.838720] Key type id_legacy registered
[    4.842717] nfs4filelayout_init: NFSv4 File Layout Driver Registering...
[    4.849374] jffs2: version 2.2. (NAND) (SUMMARY)  © 2001-2006 Red Hat, Inc.
[    4.856569] fuse: init (API version 7.32)
[    4.895694] NET: Registered protocol family 38
[    4.895739] xor: measuring software checksum speed
[    4.903431]    8regs           :  2363 MB/sec
[    4.907098]    32regs          :  2799 MB/sec
[    4.912040]    arm64_neon      :  2380 MB/sec
[    4.912230] xor: using function: 32regs (2799 MB/sec)
[    4.917257] Key type asymmetric registered
[    4.921318] Asymmetric key parser 'x509' registered
[    4.926180] Block layer SCSI generic (bsg) driver version 0.4 loaded (major 248)
[    4.933516] io scheduler mq-deadline registered
[    4.938012] io scheduler kyber registered
[    4.969027] Serial: 8250/16550 driver, 4 ports, IRQ sharing disabled
[    4.973449] cacheinfo: Unable to detect cache hierarchy for CPU 0
[    4.980428] brd: module loaded
[    4.985035] loop: module loaded
[    4.985326] Registered mathworks_ip class
[    4.988643] libphy: Fixed MDIO Bus: probed
[    4.991637] tun: Universal TUN/TAP device driver, 1.6
[    4.995688] CAN device driver interface
[    5.000186] usbcore: registered new interface driver asix
[    5.004819] usbcore: registered new interface driver ax88179_178a
[    5.010852] usbcore: registered new interface driver cdc_ether
[    5.016644] usbcore: registered new interface driver net1080
[    5.022266] usbcore: registered new interface driver cdc_subset
[    5.028149] usbcore: registered new interface driver zaurus
[    5.033694] usbcore: registered new interface driver cdc_ncm
[    5.040058] ehci_hcd: USB 2.0 'Enhanced' Host Controller (EHCI) Driver
[    5.045777] ehci-pci: EHCI PCI platform driver
[    5.050585] usbcore: registered new interface driver uas
[    5.055501] usbcore: registered new interface driver usb-storage
[    5.061489] usbcore: registered new interface driver usbserial_generic
[    5.067937] usbserial: USB Serial support registered for generic
[    5.073907] usbcore: registered new interface driver ftdi_sio
[    5.079609] usbserial: USB Serial support registered for FTDI USB Serial Device
[    5.086881] usbcore: registered new interface driver upd78f0730
[    5.092756] usbserial: USB Serial support registered for upd78f0730
[    5.100395] rtc_zynqmp ffa60000.rtc: registered as rtc0
[    5.104183] rtc_zynqmp ffa60000.rtc: setting system clock to 2035-09-28T03:39:42 UTC (2074563582)
[    5.113035] i2c /dev entries driver
[    5.118200] usbcore: registered new interface driver uvcvideo
[    5.122156] USB Video Class driver (1.1.1)
[    5.127169] Bluetooth: HCI UART driver ver 2.3
[    5.130635] Bluetooth: HCI UART protocol H4 registered
[    5.135736] Bluetooth: HCI UART protocol BCSP registered
[    5.141026] Bluetooth: HCI UART protocol LL registered
[    5.146116] Bluetooth: HCI UART protocol ATH3K registered
[    5.151492] Bluetooth: HCI UART protocol Three-wire (H5) registered
[    5.157740] Bluetooth: HCI UART protocol Intel registered
[    5.163082] Bluetooth: HCI UART protocol QCA registered
[    5.168283] usbcore: registered new interface driver bcm203x
[    5.173906] usbcore: registered new interface driver bpa10x
[    5.179444] usbcore: registered new interface driver bfusb
[    5.184892] usbcore: registered new interface driver btusb
[    5.190352] usbcore: registered new interface driver ath3k
[    5.195846] EDAC MC: ECC not enabled
[    5.199459] EDAC DEVICE0: Giving out device to module zynqmp-ocm-edac controller zynqmp_ocm: DEV ff960000.memory-controller (INTERRUPT)
[    5.211753] sdhci: Secure Digital Host Controller Interface driver
[    5.217569] sdhci: Copyright(c) Pierre Ossman
[    5.221890] sdhci-pltfm: SDHCI platform and OF driver helper
[    5.227875] ledtrig-cpu: registered to indicate activity on CPUs
[    5.233494] SMCCC: SOC_ID: ARCH_SOC_ID not implemented, skipping ....
[    5.239927] zynqmp_firmware_probe Platform Management API v1.1
[    5.245680] zynqmp_firmware_probe Trustzone version v1.0
[    5.304514] zynqmp-aes firmware:zynqmp-firmware:zynqmp-aes: will run requests pump with realtime priority
[    5.324563] alg: No test for xilinx-keccak-384 (zynqmp-keccak-384)
[    5.325294] alg: No test for xilinx-zynqmp-rsa (zynqmp-rsa)
[    5.330807] usbcore: registered new interface driver usbhid
[    5.336185] usbhid: USB HID core driver
[    5.346766] axi_sysid 85000000.axi-sysid-0: AXI System ID core version (1.01.a) found
[    5.349106] axi_sysid 85000000.axi-sysid-0: system ID header version mismatch. Expected 2, Reported 0
[    5.358146] axi_sysid: probe of 85000000.axi-sysid-0 failed with error -14
[    5.365406] fpga_manager fpga0: Xilinx ZynqMP FPGA Manager registered
[    5.371853] usbcore: registered new interface driver snd-usb-audio
[    5.379184] pktgen: Packet Generator for packet performance testing. Version: 2.75
[    5.385642] Initializing XFRM netlink socket
[    5.389337] NET: Registered protocol family 10
[    5.394113] Segment Routing with IPv6
[    5.397450] sit: IPv6, IPv4 and MPLS over IPv4 tunneling driver
[    5.403539] NET: Registered protocol family 17
[    5.407609] NET: Registered protocol family 15
[    5.412085] can: controller area network core
[    5.416366] NET: Registered protocol family 29
[    5.420750] can: raw protocol
[    5.423686] can: broadcast manager protocol
[    5.427840] can: netlink gateway - max_hops=1
[    5.432239] Bluetooth: RFCOMM TTY layer initialized
[    5.437017] Bluetooth: RFCOMM socket layer initialized
[    5.442123] Bluetooth: RFCOMM ver 1.11
[    5.445828] Bluetooth: BNEP (Ethernet Emulation) ver 1.3
[    5.451104] Bluetooth: BNEP filters: protocol multicast
[    5.456298] Bluetooth: BNEP socket layer initialized
[    5.461225] Bluetooth: HIDP (Human Interface Emulation) ver 1.2
[    5.467109] Bluetooth: HIDP socket layer initialized
[    5.472165] 9pnet: Installing 9P2000 support
[    5.476303] NET: Registered protocol family 36
[    5.480704] Key type dns_resolver registered
[    5.485115] registered taskstats version 1
[    5.488999] Loading compiled-in X.509 certificates
[    5.494145] Btrfs loaded, crc32c=crc32c-generic
[    5.507238] ff010000.serial: ttyPS0 at MMIO 0xff010000 (irq = 50, base_baud = 6250000) is a xuartps
[    5.516261] printk: console [ttyPS0] enabled
[    5.516261] printk: console [ttyPS0] enabled
[    5.520556] printk: bootconsole [cdns0] disabled
[    5.520556] printk: bootconsole [cdns0] disabled
[    5.529873] of-fpga-region fpga-full: FPGA Region probed
[    5.540903] xilinx-zynqmp-dma fd500000.dma: ZynqMP DMA driver Probe success
[    5.548091] xilinx-zynqmp-dma fd510000.dma: ZynqMP DMA driver Probe success
[    5.555264] xilinx-zynqmp-dma fd520000.dma: ZynqMP DMA driver Probe success
[    5.562454] xilinx-zynqmp-dma fd530000.dma: ZynqMP DMA driver Probe success
[    5.569630] xilinx-zynqmp-dma fd540000.dma: ZynqMP DMA driver Probe success
[    5.576810] xilinx-zynqmp-dma fd550000.dma: ZynqMP DMA driver Probe success
[    5.583988] xilinx-zynqmp-dma fd560000.dma: ZynqMP DMA driver Probe success
[    5.591168] xilinx-zynqmp-dma fd570000.dma: ZynqMP DMA driver Probe success
[    5.598412] xilinx-zynqmp-dma ffa80000.dma: ZynqMP DMA driver Probe success
[    5.605601] xilinx-zynqmp-dma ffa90000.dma: ZynqMP DMA driver Probe success
[    5.612786] xilinx-zynqmp-dma ffaa0000.dma: ZynqMP DMA driver Probe success
[    5.619965] xilinx-zynqmp-dma ffab0000.dma: ZynqMP DMA driver Probe success
[    5.627141] xilinx-zynqmp-dma ffac0000.dma: ZynqMP DMA driver Probe success
[    5.634314] xilinx-zynqmp-dma ffad0000.dma: ZynqMP DMA driver Probe success
[    5.641495] xilinx-zynqmp-dma ffae0000.dma: ZynqMP DMA driver Probe success
[    5.648668] xilinx-zynqmp-dma ffaf0000.dma: ZynqMP DMA driver Probe success
[    5.655995] zynqmp_pll_disable() clock disable failed for rpll_int, ret = -13
[    5.663684] adrv9001.c : function : adrv9002_probe: Line: 4708 => IN
[    5.663687] adrv9002_probe : 4619
[    5.670065] adrv9001.c : function : adrv9002_profile_load: Line: 4499 => IN
[    5.676680] adrv9001.c : function : adrv9002_profile_load: Line: 4516 => OUT
[    5.683666] adrv9001.c : function : adrv9002_parse_dt: Line: 4068 => IN
[    5.690712] adrv9001.c : function : adrv9002_parse_rx_dt: Line: 4012 => IN
[    5.697317] adrv9001.c : function : adrv9002_parse_rx_agc_dt: Line: 3928 => IN
[    5.704183] adrv9001.c : function : adrv9002_set_agc_defaults: Line: 3896 => IN
[    5.711396] adrv9001.c : function : adrv9002_set_agc_defaults: Line: 3910 => OUT
[    5.718695] adrv9001.c : function : adrv9002_parse_rx_pinctl_dt: Line: 3735 => IN
[    5.726082] adrv9001.c : function : adrv9002_get_arm_clk: Line: 3176 => IN
[    5.733557] adrv9001.c : adrv9002_get_arm_clk: Line: 3179,sys clock 48*10
[    5.740422] adrv9001.c : function : adrv9002_get_arm_clk: Line: 3184 => OUT
[    5.747217] adrv9001.c : function : adrv9002_parse_rx_dt: Line: 4059 => OUT
[    5.754174] adrv9001.c : function : adrv9002_parse_rx_dt: Line: 4012 => IN
[    5.761123] adrv9001.c : function : adrv9002_parse_rx_agc_dt: Line: 3928 => IN
[    5.767993] adrv9001.c : function : adrv9002_set_agc_defaults: Line: 3896 => IN
[    5.775204] adrv9001.c : function : adrv9002_set_agc_defaults: Line: 3910 => OUT
[    5.782501] adrv9001.c : function : adrv9002_parse_rx_pinctl_dt: Line: 3735 => IN
[    5.789889] adrv9001.c : function : adrv9002_get_arm_clk: Line: 3176 => IN
[    5.797362] adrv9001.c : adrv9002_get_arm_clk: Line: 3179,sys clock 48*10
[    5.804228] adrv9001.c : function : adrv9002_get_arm_clk: Line: 3184 => OUT
[    5.811020] adrv9001.c : function : adrv9002_parse_rx_dt: Line: 4059 => OUT
[    5.817982] adrv9001.c : function : adrv9002_parse_tx_dt: Line: 3717 => IN
[    5.824938] adrv9001.c : function : adrv9002_get_arm_clk: Line: 3176 => IN
[    5.831804] adrv9001.c : adrv9002_get_arm_clk: Line: 3179,sys clock 48*10
[    5.838668] adrv9001.c : function : adrv9002_get_arm_clk: Line: 3184 => OUT
[    5.845449] adrv9001.c : function : adrv9002_parse_tx_dt: Line: 3725 => OUT
[    5.852402] adrv9001.c : function : adrv9002_parse_tx_pin_dt: Line: 3679 => IN
[    5.859356] adrv9001.c : function : adrv9002_parse_tx_dt: Line: 3717 => IN
[    5.866568] adrv9001.c : function : adrv9002_get_arm_clk: Line: 3176 => IN
[    5.873432] adrv9001.c : adrv9002_get_arm_clk: Line: 3179,sys clock 48*10
[    5.880298] adrv9001.c : function : adrv9002_get_arm_clk: Line: 3184 => OUT
[    5.887077] adrv9001.c : function : adrv9002_parse_tx_dt: Line: 3725 => OUT
[    5.894029] adrv9001.c : function : adrv9002_parse_tx_pin_dt: Line: 3679 => IN
[    5.900991] adrv9001.c : function : adrv9002_parse_fh_dt: Line: 3492 => IN
[    5.908219] adrv9001.c : function : adrv9002_fh_parse_table_control: Line: 3343 => IN
[    5.915089] adrv9001.c : function : adrv9002_fh_parse_gpio_gain_control: Line: 3440 => IN
[    5.922910] adrv9001.c : function : adrv9002_parse_fh_dt: Line: 3605 => OUT
[    5.931080] adrv9001.c : function : adrv9002_parse_dt: Line: 4207 => OUT
[    5.938033] probe function exit : 4681
[    5.944722] adrv9001.c : function : adrv9002_probe: Line: 4772 =>IN
[    5.955695] ------------[ cut here ]------------
[    5.960314] /axi/spi@ff050000/spidev@0x00: buggy DT: spidev listed directly in DT
[    5.967839] WARNING: CPU: 0 PID: 30 at drivers/spi/spidev.c:741 spidev_probe+0x164/0x1e4
[    5.975912] Modules linked in:
[    5.978963] CPU: 0 PID: 30 Comm: kworker/0:1 Not tainted 5.10.0-xilinx-v2021.1 #1
[    5.986432] Hardware name: xlnx,zynqmp (DT)
[    5.990605] Workqueue: events deferred_probe_work_func
[    5.995731] pstate: 60000005 (nZCv daif -PAN -UAO -TCO BTYPE=--)
[    6.001729] pc : spidev_probe+0x164/0x1e4
[    6.005730] lr : spidev_probe+0x164/0x1e4
[    6.009721] sp : ffffffc0121bb7c0
[    6.013019] x29: ffffffc0121bb7c0 x28: 0000000000000000
[    6.018322] x27: ffffff80402717c8 x26: 0000000000000000
[    6.023626] x25: ffffffc011f125e0 x24: ffffff807cd26000
[    6.028929] x23: 000000000000001a x22: ffffffc011f1bc08
[    6.034233] x21: ffffffc011f1bbe8 x20: ffffff807cd26000
[    6.039536] x19: 0000000000000000 x18: 0000000000000030
[    6.044840] x17: 000150dc76208e34 x16: 0000000000000013
[    6.050143] x15: ffffff8040275598 x14: 3030303530666640
[    6.055447] x13: ffffffc011eadb70 x12: 00000000000003d5
[    6.060750] x11: 0000000000000147 x10: ffffffc011ed9b70
[    6.066054] x9 : 00000000fffff800 x8 : ffffffc011eadb70
[    6.071357] x7 : ffffffc011ed9b70 x6 : 0000000000000000
[    6.076661] x5 : 0000000000005ff4 x4 : 0000000000000000
[    6.081964] x3 : 0000000000000000 x2 : 00000000ffffffff
[    6.087268] x1 : 06f82fdc97625400 x0 : 0000000000000000
[    6.092571] Call trace:
[    6.095005]  spidev_probe+0x164/0x1e4
[    6.098658]  spi_drv_probe+0x80/0xe0
[    6.102217]  really_probe+0xe8/0x4b4
[    6.105775]  driver_probe_device+0x58/0xc0
[    6.109855]  __device_attach_driver+0xa8/0x10c
[    6.114281]  bus_for_each_drv+0x78/0xd0
[    6.118101]  __device_attach+0xdc/0x17c
[    6.121920]  device_initial_probe+0x14/0x20
[    6.126086]  bus_probe_device+0x9c/0xa4
[    6.129906]  device_add+0x328/0x714
[    6.133378]  spi_add_device+0xbc/0x1b0
[    6.137110]  of_register_spi_device+0x230/0x380
[    6.141624]  spi_register_controller+0x7bc/0x800
[    6.146225]  cdns_spi_probe+0x29c/0x380
[    6.150054]  platform_drv_probe+0x54/0xb0
[    6.154053]  really_probe+0xe8/0x4b4
[    6.157612]  driver_probe_device+0x58/0xc0
[    6.161692]  __device_attach_driver+0xa8/0x10c
[    6.166118]  bus_for_each_drv+0x78/0xd0
[    6.169938]  __device_attach+0xdc/0x17c
[    6.173757]  device_initial_probe+0x14/0x20
[    6.177923]  bus_probe_device+0x9c/0xa4
[    6.181743]  deferred_probe_work_func+0x74/0xb0
[    6.186257]  process_one_work+0x1d4/0x380
[    6.190257]  worker_thread+0x298/0x4e0
[    6.193991]  kthread+0x124/0x130
[    6.197211]  ret_from_fork+0x10/0x3c
[    6.200768] ---[ end trace 4697bfeab9da6376 ]---
[    6.206176] spi-nor spi0.0: SPI-NOR-UniqueID 1044003eda0b00140d002100014e813efb
[    6.214070] spi-nor spi0.0: trying to lock already unlocked area
[    6.220075] spi-nor spi0.0: mt25qu02g (262144 Kbytes)
[    6.226407] macb ff0d0000.ethernet: Not enabling partial store and forward
[    6.238991] libphy: MACB_mii_bus: probed
[    6.242958] macb ff0d0000.ethernet eth0: Cadence GEM rev 0x50070106 at 0xff0d0000 irq 38 (76:92:10:f3:f7:00)
[    6.253259] xilinx-axipmon ffa00000.perf-monitor: Probed Xilinx APM
[    6.259866] xilinx-axipmon fd0b0000.perf-monitor: Probed Xilinx APM
[    6.266408] xilinx-axipmon fd490000.perf-monitor: Probed Xilinx APM
[    6.272944] xilinx-axipmon ffa10000.perf-monitor: Probed Xilinx APM
[    6.279798] cdns-i2c ff020000.i2c: 400 kHz mmio ff020000 irq 40
[    6.286242] i2c i2c-1: of_i2c: modalias failure on /axi/i2c@ff030000/i2c-mux@75
[    6.293555] i2c i2c-1: Failed to create I2C device for /axi/i2c@ff030000/i2c-mux@75
[    6.301226] cdns-i2c ff030000.i2c: 400 kHz mmio ff030000 irq 41
[    6.307611] cpu cpu0: dev_pm_opp_set_rate: failed to find current OPP for freq 1200000000 (-34)
[    6.316361] cpufreq: cpufreq_online: CPU0: Running at unlisted initial frequency: 1200000 KHz, changing to: 1199999 KHz
[    6.327162] cpu cpu0: dev_pm_opp_set_rate: failed to find current OPP for freq 1200000000 (-34)
[    6.356326] adrv9001.c : function : adrv9002_post_init: Line: 4580 => IN
[    6.356330] adrv9001.c : adrv9002_clk_register : IN : 323
[    6.363020] adrv9001.c : adrv9002_clk_set_dev_name : IN : 269
[    6.368408] adrv9001.c : adrv9002_clk_set_dev_name : OUT : 279
[    6.374224] adrv9001.c : adrv9002_bb_recalc_rate : IN : 286
[    6.380050] adrv9001.c : adrv9002_bb_recalc_rate : OUT : 288
[    6.385786] adrv9001.c : adrv9002_clk_register : out : 348
[    6.391438] adrv9001.c : adrv9002_clk_register : IN : 323
[    6.396914] adrv9001.c : adrv9002_clk_set_dev_name : IN : 269
[    6.402305] adrv9001.c : adrv9002_clk_set_dev_name : OUT : 279
[    6.408060] adrv9001.c : adrv9002_bb_recalc_rate : IN : 286
[    6.413884] adrv9001.c : adrv9002_bb_recalc_rate : OUT : 288
[    6.419613] adrv9001.c : adrv9002_clk_register : out : 348
[    6.425264] adrv9001.c : adrv9002_clk_register : IN : 323
[    6.430739] adrv9001.c : adrv9002_clk_set_dev_name : IN : 269
[    6.436131] adrv9001.c : adrv9002_clk_set_dev_name : OUT : 279
[    6.441885] adrv9001.c : adrv9002_bb_recalc_rate : IN : 286
[    6.447709] adrv9001.c : adrv9002_bb_recalc_rate : OUT : 288
[    6.453441] adrv9001.c : adrv9002_clk_register : out : 348
[    6.459091] adrv9001.c : adrv9002_clk_register : IN : 323
[    6.464565] adrv9001.c : adrv9002_clk_set_dev_name : IN : 269
[    6.469956] adrv9001.c : adrv9002_clk_set_dev_name : OUT : 279
[    6.475712] adrv9001.c : adrv9002_bb_recalc_rate : IN : 286
[    6.481535] adrv9001.c : adrv9002_bb_recalc_rate : OUT : 288
[    6.487260] adrv9001.c : adrv9002_clk_register : out : 348
[    6.492908] adrv9001.c : adrv9002_clk_register : IN : 323
[    6.498384] adrv9001.c : adrv9002_clk_set_dev_name : IN : 269
[    6.503773] adrv9001.c : adrv9002_clk_set_dev_name : OUT : 279
[    6.509528] adrv9001.c : adrv9002_bb_recalc_rate : IN : 286
[    6.515353] adrv9001.c : adrv9002_bb_recalc_rate : OUT : 288
[    6.521081] adrv9001.c : adrv9002_clk_register : out : 348
[    6.526733] adrv9001.c : adrv9002_clk_register : IN : 323
[    6.532210] adrv9001.c : adrv9002_clk_set_dev_name : IN : 269
[    6.537598] adrv9001.c : adrv9002_clk_set_dev_name : OUT : 279
[    6.543352] adrv9001.c : adrv9002_bb_recalc_rate : IN : 286
[    6.549180] adrv9001.c : adrv9002_bb_recalc_rate : OUT : 288
[    6.554907] adrv9001.c : adrv9002_clk_register : out : 348
[    6.560560] adrv9001.c : function : adrv9002_profile_load: Line: 4499 => IN
[    6.569338] adrv9001.c : function : adrv9002_profile_load: Line: 4516 => OUT
[    6.576294] adrv9001.c : function : adrv9002_cleanup: Line: 3157 => IN
[    6.583338] adrv9001.c : function : adrv9002_cleanup: Line: 3169 => OUT
[    6.589855] adrv9001.c : function : adrv9002_init: Line: 4217 => IN
[    6.596461] adrv9001.c : function : adrv9002_setup: Line: 2851 => IN
[    6.610144] MESSAGE:SPI WRITE:         SPI_INTERFACE_CONFIG_B: addr=0x0001, data=0x80
[    6.618091] MESSAGE:SPI WRITE:         SPI_INTERFACE_CONFIG_A: addr=0x0000, data=0x3c
[    6.626040] MESSAGE:SPI READ:                    VENDOR_ID_0: addr=0x000b, data=0x56
[    6.633896] MESSAGE:SPI READ:                    VENDOR_ID_1: addr=0x000c, data=0x04
[    6.641752] MESSAGE:SPI WRITE:                    SCRATCH_PAD: addr=0x0009, data=0xb6
[    6.649695] MESSAGE:SPI READ:                    SCRATCH_PAD: addr=0x0009, data=0xb6
[    6.657549] MESSAGE:SPI WRITE:                    SCRATCH_PAD: addr=0x0009, data=0x49
[    6.665492] MESSAGE:SPI READ:                    SCRATCH_PAD: addr=0x0009, data=0x49
[    6.673347] MESSAGE:SPI READ: SCRATCH_PAD_READ_ONLY_UPPER_ADDR: addr=0x01fc, data=0xa5
[    6.681376] MESSAGE:SPI WRITE:         SCRATCH_PAD_UPPER_ADDR: addr=0x01fb, data=0xb6
[    6.689319] MESSAGE:SPI READ:         SCRATCH_PAD_UPPER_ADDR: addr=0x01fb, data=0xb6
[    6.697173] MESSAGE:SPI WRITE:         SCRATCH_PAD_UPPER_ADDR: addr=0x01fb, data=0x49
[    6.705115] MESSAGE:SPI READ:         SCRATCH_PAD_UPPER_ADDR: addr=0x01fb, data=0x49
[    6.712944] adrv9001.c : function : adrv9002_validate_profile: Line: 2497 => IN
[    6.712948] adrv9001.c : function : adrv9002_validate_profile: Line: 2624 => OUT
[    6.720247] adrv9001.c : function : adrv9002_compute_init_cals: Line: 2458 =>IN
[    6.727633] adrv9001.c : function : adrv9002_compute_init_cals: Line: 2480 =>OUT
[    6.734934] adrv9001_InitAnalog_Validate: 377
[    6.746707] MESSAGE:SPI WRITE:            MASTERBIAS_CONFIG_0: addr=0x01b4, data=0x00
[    6.754652] MESSAGE:SPI WRITE:              ANALOG_CONTROL_18: addr=0x01c9, data=0x05
[    6.762595] MESSAGE:SPI WRITE:           DEVICE_CLK_CONTROL_1: addr=0x01e0, data=0x12
[    6.770506] adrv9001_ProfilesVerify : 628
[    6.770510] adrv9001_VerifyRxProfile : 524
[    6.774513] adrv9001_VerifyRxProfile : 524
[    6.778601] adrv9001_VerifyTxProfile : 488
[    6.782689] adrv9001_VerifyLbProfile : 596
[    6.786777] adrv9001_VerifyTxProfile : 488
[    6.790866] adrv9001_VerifyLbProfile : 596
[    6.794953] adrv9001_InitAnalog : 400
[    6.802871] MESSAGE:SPI WRITE:        REF_CLK_GEN_OUT_CLKS_PD: addr=0x01ca, data=0x1b
[    6.810812] MESSAGE:SPI WRITE:             REF_CLK_PAD_CONFIG: addr=0x0076, data=0x00
[    6.818753] MESSAGE:SPI WRITE:                   BBIC_ENABLES: addr=0x0162, data=0x00
[    6.826668] adrv9001.c : function : adrv9002_digital_init: Line: 2661 => IN
[    6.833654] MESSAGE:SPI READ:                 AHB_SPI_BRIDGE: addr=0x00d2, data=0x0e
[    6.841480] ###ENABLE  AHB_SPI_BRIDGE 1 e
[    6.845510] MESSAGE:SPI WRITE:                 AHB_SPI_BRIDGE: addr=0x00d2, data=0x0f
[    6.853418] ###ENABLE  AHB_SPI_BRIDGE 2 f
[    6.857453] MESSAGE:SPI WRITE:                     STREAM_CTL: addr=0x0116, data=0xf1
[    6.907470] random: fast init done
[    7.003742] MESSAGE:SPI WRITE:              STREAM_BASE_BYTE0: addr=0x0117, data=0x38
[    7.011694] MESSAGE:SPI WRITE:              STREAM_BASE_BYTE1: addr=0x0118, data=0x40
[    7.019635] MESSAGE:SPI WRITE:             LAST_STREAM_NUMBER: addr=0x0119, data=0x3f
[    7.027578] MESSAGE:SPI WRITE:                     STREAM_CTL: addr=0x0116, data=0xf0
[    7.035523] MESSAGE:SPI WRITE:                     STREAM_CTL: addr=0x023c, data=0xc1
[    7.077329] MESSAGE:SPI WRITE:              STREAM_BASE_BYTE0: addr=0x023d, data=0x10
[    7.085278] MESSAGE:SPI WRITE:              STREAM_BASE_BYTE1: addr=0x023e, data=0x00
[    7.093216] MESSAGE:SPI WRITE:             LAST_STREAM_NUMBER: addr=0x023f, data=0x3f
[    7.101158] MESSAGE:SPI WRITE:                     STREAM_CTL: addr=0x023c, data=0xc0
[    7.109104] MESSAGE:SPI WRITE:                     STREAM_CTL: addr=0x0254, data=0xc1
[    7.150957] MESSAGE:SPI WRITE:              STREAM_BASE_BYTE0: addr=0x0255, data=0x10
[    7.158906] MESSAGE:SPI WRITE:              STREAM_BASE_BYTE1: addr=0x0256, data=0x00
[    7.166848] MESSAGE:SPI WRITE:             LAST_STREAM_NUMBER: addr=0x0257, data=0x3f
[    7.174791] MESSAGE:SPI WRITE:                     STREAM_CTL: addr=0x0254, data=0xc0
[    7.182737] MESSAGE:SPI WRITE:                     STREAM_CTL: addr=0x026c, data=0xc1
[    7.224552] MESSAGE:SPI WRITE:              STREAM_BASE_BYTE0: addr=0x026d, data=0x10
[    7.232496] MESSAGE:SPI WRITE:              STREAM_BASE_BYTE1: addr=0x026e, data=0x00
[    7.240437] MESSAGE:SPI WRITE:             LAST_STREAM_NUMBER: addr=0x026f, data=0x3f
[    7.248378] MESSAGE:SPI WRITE:                     STREAM_CTL: addr=0x026c, data=0xc0
[    7.256323] MESSAGE:SPI WRITE:                     STREAM_CTL: addr=0x0284, data=0xc1
[    7.298127] MESSAGE:SPI WRITE:              STREAM_BASE_BYTE0: addr=0x0285, data=0x10
[    7.306067] MESSAGE:SPI WRITE:              STREAM_BASE_BYTE1: addr=0x0286, data=0x00
[    7.314009] MESSAGE:SPI WRITE:             LAST_STREAM_NUMBER: addr=0x0287, data=0x3f
[    7.321951] MESSAGE:SPI WRITE:                     STREAM_CTL: addr=0x0284, data=0xc0
[    7.329899] MESSAGE:SPI WRITE:           ARM_BOOT_ADDR_BYTE_0: addr=0x00d3, data=0x2d
[    7.337844] MESSAGE:SPI WRITE:           ARM_BOOT_ADDR_BYTE_1: addr=0x00d4, data=0x5c
[    7.345786] MESSAGE:SPI WRITE:           ARM_BOOT_ADDR_BYTE_2: addr=0x00d5, data=0x04
[    7.353729] MESSAGE:SPI WRITE:           ARM_BOOT_ADDR_BYTE_3: addr=0x00d6, data=0x01
[    7.361670] MESSAGE:SPI WRITE:           ARM_STACK_PTR_BYTE_0: addr=0x00d7, data=0x60
[    7.369613] MESSAGE:SPI WRITE:           ARM_STACK_PTR_BYTE_1: addr=0x00d8, data=0x1d
[    7.377555] MESSAGE:SPI WRITE:           ARM_STACK_PTR_BYTE_2: addr=0x00d9, data=0x01
[    7.385496] MESSAGE:SPI WRITE:           ARM_STACK_PTR_BYTE_3: addr=0x00da, data=0x20
[    9.847108] random: crng init done
[   10.101538] MESSAGE:SPI WRITE:          RX1_DEC_POWR_CONFIG_1: addr=0x1012, data=0x09
[   10.109483] MESSAGE:SPI WRITE:       RX1_DIGITAL_GAIN_CONFIG2: addr=0x0f67, data=0x01
[   10.134379] MESSAGE:SPI WRITE:          RX1_DEC_POWR_CONFIG_1: addr=0x1012, data=0x09
[   10.142319] MESSAGE:SPI WRITE:       RX1_DIGITAL_GAIN_CONFIG2: addr=0x0f67, data=0x01
[   10.153931] MESSAGE:SPI WRITE:          RX2_DEC_POWR_CONFIG_1: addr=0x1412, data=0x09
[   10.161874] MESSAGE:SPI WRITE:       RX2_DIGITAL_GAIN_CONFIG2: addr=0x1367, data=0x01
[   10.186126] MESSAGE:SPI WRITE:          RX2_DEC_POWR_CONFIG_1: addr=0x1412, data=0x09
[   10.194069] MESSAGE:SPI WRITE:       RX2_DIGITAL_GAIN_CONFIG2: addr=0x1367, data=0x01
[   10.470809] adrv9001.c : function : adrv9002_power_mgmt_config: Line: 2631 => IN
[   10.470813] adi_adrv9001_powermanagement.h: function : adi_adrv9001_powermanagement_Configure: Line: 80 =>IN
[   10.478203] adi_adrv9001_powermanagement.h: function : adi_adrv9001_powermanagement_Configure_Validate: Line: 27 =>IN
[   10.499562] ReadPattern1 -272716322
[   10.503043] fixedPattern1 -272716322
[   10.506609] pwermangment value 0
[   10.506612] pwermangment value 0
[   10.509823] pwermangment value 0
[   10.513040] pwermangment value 0
[   10.516260] pwermangment value 0
[   10.519480] pwermangment value 0
[   10.522700] pwermangment value 0
[   10.525916] pwermangment value 0
[   10.529132] pwermangment value 0
[   10.532353] pwermangment value 0
[   10.535573] pwermangment value 0
[   10.538793] pwermangment value 0
[   10.542013] pwermangment value 0
[   10.545229] pwermangment value 0
[   10.548445] pwermangment value 0
[   10.551665] pwermangment value 0
[   10.554886] pwermangment value 0
[   10.558110] pwermangment value 0
[   10.561321] pwermangment value 0
[   10.564540] adi_adrv9001_powermanagement.h: function : adi_adrv9001_powermanagement_Configure_Validate: Line: 66 =>OUT
[   10.580417] adi_adrv9001_powermanagement.h: function : adi_adrv9001_powermanagement_Configure: Line: 88 =>OUT
[   10.580420] adrv9001.c : function : adrv9002_power_mgmt_config: Line: 2648 => OUT
[   10.598330] MESSAGE:SPI WRITE:                      ARM_CTL_1: addr=0x00cf, data=0x89
[   10.606246] adrv9001_arm_StartStatus : waitInterval_us1 0:
[   10.606249] adrv9001_arm_StartStatus : waitInterval_us2 100000:
[   10.611725] adrv9001_arm_StartStatus : timeout_us 5000000:
[   10.617635] adrv9001_arm_StartStatus : numEventChecks 50:
[   10.628546] MESSAGE:SPI READ:               arm_cmd_status_8: addr=0x010e, data=0x00
[   10.636368] arm_cmd_status_8 : adi_adrv9001_Radio_State_Get: Line: 391 :reg VAlue 0x00
[   10.636371] ###################ARM COMMAND 8###########################
[   10.644273] radioState->systemState     :0x00
[   10.650878] radioState->monitorModeState:0x00
[   10.655227] radioState->mcsState        :0x00
[   10.659576] radioState->bootState       :0x00
[   10.668306] MESSAGE:SPI READ:               arm_cmd_status_9: addr=0x010f, data=0x00
[   10.676133] arm_cmd_status_9 : adi_adrv9001_Radio_State_Get: Line: 407 :reg VAlue 0x00
[   10.676135] ###################ARM COMMAND 9###########################
[   10.684049] radioState->channelStates[0][0] :0x00
[   10.690651] radioState->channelStates[0][1] :0x00
[   10.695346] radioState->channelStates[1][0] :0x00
[   10.700043] radioState->channelStates[1][1] :0x00
[   10.704738] State Value is in loop 0x121bb720
[   10.709434]  inside the arm boot wait: adi_adrv9001_arm_StartStatus_Check: Line: 146 => OUT
[   10.822185] MESSAGE:SPI READ:               arm_cmd_status_8: addr=0x010e, data=0x11
[   10.830011] arm_cmd_status_8 : adi_adrv9001_Radio_State_Get: Line: 391 :reg VAlue 0x11
[   10.830013] ###################ARM COMMAND 8###########################
[   10.837927] radioState->systemState     :0x01
[   10.844531] radioState->monitorModeState:0x00
[   10.848878] radioState->mcsState        :0x00
[   10.853226] radioState->bootState       :0x01
[   10.861957] MESSAGE:SPI READ:               arm_cmd_status_9: addr=0x010f, data=0x00
[   10.869783] arm_cmd_status_9 : adi_adrv9001_Radio_State_Get: Line: 407 :reg VAlue 0x00
[   10.869786] ###################ARM COMMAND 9###########################
[   10.877696] radioState->channelStates[0][0] :0x00
[   10.884302] radioState->channelStates[0][1] :0x00
[   10.888997] radioState->channelStates[1][0] :0x00
[   10.893692] radioState->channelStates[1][1] :0x00
[   10.898389] State Value is in loop 0x121bb720
[   10.903086]  ARM booted successfully : adi_adrv9001_arm_StartStatus_Check: Line: 164 => OUT
[   10.907434] ARM: adi_adrv9001_arm_StartStatus_Check: Line: 210 => OUT
[   10.915775] adrv9001.c : function : adrv9002_digital_init: Line: 2757 => OUT
[   10.922208] adrv9001.c : function : adrv9002_radio_init: Line: 2778 => IN
[   10.936612] MESSAGE:SPI WRITE:            ARM_EXT_CMD_BYTE_1+: addr=0x0101, data=0x00
[   10.944558] MESSAGE:SPI WRITE:            ARM_EXT_CMD_BYTE_1+: addr=0x0102, data=0x8b
[   10.952513] MESSAGE:SPI WRITE:            ARM_EXT_CMD_BYTE_1+: addr=0x0103, data=0x00
[   10.960447] MESSAGE:SPI WRITE:                    ARM_COMMAND: addr=0x0100, data=0x0a
[   10.968389] MESSAGE:SPI READ:                               : addr=0x0108, data=0x00
[   10.976798] MESSAGE:SPI WRITE:            ARM_EXT_CMD_BYTE_1+: addr=0x0101, data=0x00
[   10.984741] MESSAGE:SPI WRITE:            ARM_EXT_CMD_BYTE_1+: addr=0x0102, data=0x8b
[   10.992680] MESSAGE:SPI WRITE:            ARM_EXT_CMD_BYTE_1+: addr=0x0103, data=0x01
[   11.000622] MESSAGE:SPI WRITE:                    ARM_COMMAND: addr=0x0100, data=0x0a
[   11.008567] MESSAGE:SPI READ:                               : addr=0x0108, data=0x00
[   11.016983] MESSAGE:SPI WRITE:            ARM_EXT_CMD_BYTE_1+: addr=0x0101, data=0x00
[   11.024926] MESSAGE:SPI WRITE:            ARM_EXT_CMD_BYTE_1+: addr=0x0102, data=0x8b
[   11.032868] MESSAGE:SPI WRITE:            ARM_EXT_CMD_BYTE_1+: addr=0x0103, data=0x02
[   11.040810] MESSAGE:SPI WRITE:                    ARM_COMMAND: addr=0x0100, data=0x0a
[   11.048755] MESSAGE:SPI READ:                               : addr=0x0108, data=0x00
[   11.056642] MESSAGE:SPI WRITE:            ARM_EXT_CMD_BYTE_1+: addr=0x0101, data=0x01
[   11.064584] MESSAGE:SPI WRITE:            ARM_EXT_CMD_BYTE_1+: addr=0x0102, data=0x83
[   11.072526] MESSAGE:SPI WRITE:                    ARM_COMMAND: addr=0x0100, data=0x0c
[   11.080478] MESSAGE:SPI READ:                               : addr=0x0109, data=0x00
[   11.089414] adi_adrv9001_Radio_Channel_State_Get Before 0
[   11.094930] MESSAGE:SPI READ:               arm_cmd_status_9: addr=0x010f, data=0x00
[   11.102753] ADRV9001_ADDR_ARM_CMD_STATUS_9 0
[   11.102755] ADI Rx Channel 1
[   11.107017] Radio.c
[   11.109880] adi_adrv9001_Radio_Channel_State_Get 0
[   11.117771] MESSAGE:SPI WRITE:            ARM_EXT_CMD_BYTE_1+: addr=0x0101, data=0x01
[   11.125710] MESSAGE:SPI WRITE:            ARM_EXT_CMD_BYTE_1+: addr=0x0102, data=0x83
[   11.133651] MESSAGE:SPI WRITE:                    ARM_COMMAND: addr=0x0100, data=0x0a
[   11.141597] MESSAGE:SPI READ:                               : addr=0x0108, data=0x00
[   11.149419] adrv9001.c : function : adrv9002_get_arm_clk: Line: 3176 => IN
[   11.149422] adrv9001.c : adrv9002_get_arm_clk: Line: 3179,sys clock 48*10
[   11.156291] adrv9001.c : function : adrv9002_get_arm_clk: Line: 3184 => OUT
[   11.170076] MESSAGE:SPI WRITE:            ARM_EXT_CMD_BYTE_1+: addr=0x0101, data=0x00
[   11.178022] MESSAGE:SPI WRITE:            ARM_EXT_CMD_BYTE_1+: addr=0x0102, data=0x80
[   11.185966] MESSAGE:SPI WRITE:            ARM_EXT_CMD_BYTE_1+: addr=0x0103, data=0x1a
[   11.193908] MESSAGE:SPI WRITE:                    ARM_COMMAND: addr=0x0100, data=0x0c
[   11.201853] MESSAGE:SPI READ:                               : addr=0x0109, data=0x00
[   11.210313] MESSAGE:SPI READ:               arm_cmd_status_9: addr=0x010f, data=0x00
[   11.218137] ADRV9001_ADDR_ARM_CMD_STATUS_9 0
[   11.218139] ADI Rx Channel 1
[   11.226318] MESSAGE:SPI WRITE:            ARM_EXT_CMD_BYTE_1+: addr=0x0101, data=0x01
[   11.234265] MESSAGE:SPI WRITE:            ARM_EXT_CMD_BYTE_1+: addr=0x0102, data=0x9c
[   11.242205] MESSAGE:SPI WRITE:                    ARM_COMMAND: addr=0x0100, data=0x0a
[   11.250149] MESSAGE:SPI READ:                               : addr=0x0108, data=0x00
[   11.258036] MESSAGE:SPI WRITE:            ARM_EXT_CMD_BYTE_1+: addr=0x0101, data=0x04
[   11.265978] MESSAGE:SPI WRITE:            ARM_EXT_CMD_BYTE_1+: addr=0x0102, data=0x83
[   11.273920] MESSAGE:SPI WRITE:                    ARM_COMMAND: addr=0x0100, data=0x0c
[   11.281862] MESSAGE:SPI READ:                               : addr=0x0109, data=0x00
[   11.290807] adi_adrv9001_Radio_Channel_State_Get Before 0
[   11.296324] MESSAGE:SPI READ:               arm_cmd_status_9: addr=0x010f, data=0x00
[   11.304147] ADRV9001_ADDR_ARM_CMD_STATUS_9 0
[   11.304149] ADI Tx Channel 1
[   11.308406] Radio.c
[   11.311278] adi_adrv9001_Radio_Channel_State_Get 0
[   11.319163] MESSAGE:SPI WRITE:            ARM_EXT_CMD_BYTE_1+: addr=0x0101, data=0x04
[   11.327103] MESSAGE:SPI WRITE:            ARM_EXT_CMD_BYTE_1+: addr=0x0102, data=0x83
[   11.335052] MESSAGE:SPI WRITE:                    ARM_COMMAND: addr=0x0100, data=0x0a
[   11.342997] MESSAGE:SPI READ:                               : addr=0x0108, data=0x00
[   11.350820] adrv9001.c : function : adrv9002_get_arm_clk: Line: 3176 => IN
[   11.350823] adrv9001.c : adrv9002_get_arm_clk: Line: 3179,sys clock 48*10
[   11.357692] adrv9001.c : function : adrv9002_get_arm_clk: Line: 3184 => OUT
[   11.371493] MESSAGE:SPI WRITE:            ARM_EXT_CMD_BYTE_1+: addr=0x0101, data=0x00
[   11.379434] MESSAGE:SPI WRITE:            ARM_EXT_CMD_BYTE_1+: addr=0x0102, data=0x80
[   11.387373] MESSAGE:SPI WRITE:            ARM_EXT_CMD_BYTE_1+: addr=0x0103, data=0x18
[   11.395319] MESSAGE:SPI WRITE:                    ARM_COMMAND: addr=0x0100, data=0x0c
[   11.403264] MESSAGE:SPI READ:                               : addr=0x0109, data=0x00
[   11.411742] MESSAGE:SPI READ:               arm_cmd_status_9: addr=0x010f, data=0x00
[   11.419565] ADRV9001_ADDR_ARM_CMD_STATUS_9 0
[   11.419567] ADI Tx Channel 1
[   11.427751] MESSAGE:SPI WRITE:            ARM_EXT_CMD_BYTE_1+: addr=0x0101, data=0x04
[   11.435690] MESSAGE:SPI WRITE:            ARM_EXT_CMD_BYTE_1+: addr=0x0102, data=0x9c
[   11.443632] MESSAGE:SPI WRITE:                    ARM_COMMAND: addr=0x0100, data=0x0a
[   11.451577] MESSAGE:SPI READ:                               : addr=0x0108, data=0x00
[   11.459463] MESSAGE:SPI WRITE:            ARM_EXT_CMD_BYTE_1+: addr=0x0101, data=0x02
[   11.467414] MESSAGE:SPI WRITE:            ARM_EXT_CMD_BYTE_1+: addr=0x0102, data=0x83
[   11.475356] MESSAGE:SPI WRITE:                    ARM_COMMAND: addr=0x0100, data=0x0c
[   11.483303] MESSAGE:SPI READ:                               : addr=0x0109, data=0x00
[   11.492233] adi_adrv9001_Radio_Channel_State_Get Before 0
[   11.497737] MESSAGE:SPI READ:               arm_cmd_status_9: addr=0x010f, data=0x00
[   11.505561] ADRV9001_ADDR_ARM_CMD_STATUS_9 0
[   11.505563] ADI Rx Channel 2
[   11.509827] Radio.c
[   11.512699] adi_adrv9001_Radio_Channel_State_Get 0
[   11.520595] MESSAGE:SPI WRITE:            ARM_EXT_CMD_BYTE_1+: addr=0x0101, data=0x02
[   11.528538] MESSAGE:SPI WRITE:            ARM_EXT_CMD_BYTE_1+: addr=0x0102, data=0x83
[   11.536482] MESSAGE:SPI WRITE:                    ARM_COMMAND: addr=0x0100, data=0x0a
[   11.544427] MESSAGE:SPI READ:                               : addr=0x0108, data=0x00
[   11.552248] adrv9001.c : function : adrv9002_get_arm_clk: Line: 3176 => IN
[   11.552251] adrv9001.c : adrv9002_get_arm_clk: Line: 3179,sys clock 48*10
[   11.559120] adrv9001.c : function : adrv9002_get_arm_clk: Line: 3184 => OUT
[   11.572912] MESSAGE:SPI WRITE:            ARM_EXT_CMD_BYTE_1+: addr=0x0101, data=0x00
[   11.580855] MESSAGE:SPI WRITE:            ARM_EXT_CMD_BYTE_1+: addr=0x0102, data=0x80
[   11.588796] MESSAGE:SPI WRITE:            ARM_EXT_CMD_BYTE_1+: addr=0x0103, data=0x1b
[   11.596745] MESSAGE:SPI WRITE:                    ARM_COMMAND: addr=0x0100, data=0x0c
[   11.604690] MESSAGE:SPI READ:                               : addr=0x0109, data=0x00
[   11.613134] MESSAGE:SPI READ:               arm_cmd_status_9: addr=0x010f, data=0x00
[   11.620961] ADRV9001_ADDR_ARM_CMD_STATUS_9 0
[   11.620963] ADI Rx Channel 2
[   11.629149] MESSAGE:SPI WRITE:            ARM_EXT_CMD_BYTE_1+: addr=0x0101, data=0x02
[   11.637092] MESSAGE:SPI WRITE:            ARM_EXT_CMD_BYTE_1+: addr=0x0102, data=0x9c
[   11.645034] MESSAGE:SPI WRITE:                    ARM_COMMAND: addr=0x0100, data=0x0a
[   11.652978] MESSAGE:SPI READ:                               : addr=0x0108, data=0x00
[   11.660865] MESSAGE:SPI WRITE:            ARM_EXT_CMD_BYTE_1+: addr=0x0101, data=0x08
[   11.668809] MESSAGE:SPI WRITE:            ARM_EXT_CMD_BYTE_1+: addr=0x0102, data=0x83
[   11.676751] MESSAGE:SPI WRITE:                    ARM_COMMAND: addr=0x0100, data=0x0c
[   11.684695] MESSAGE:SPI READ:                               : addr=0x0109, data=0x00
[   11.693623] adi_adrv9001_Radio_Channel_State_Get Before 0
[   11.699136] MESSAGE:SPI READ:               arm_cmd_status_9: addr=0x010f, data=0x00
[   11.706960] ADRV9001_ADDR_ARM_CMD_STATUS_9 0
[   11.706962] ADI Tx Channel 2
[   11.711227] Radio.c
[   11.714100] adi_adrv9001_Radio_Channel_State_Get 0
[   11.721985] MESSAGE:SPI WRITE:            ARM_EXT_CMD_BYTE_1+: addr=0x0101, data=0x08
[   11.729931] MESSAGE:SPI WRITE:            ARM_EXT_CMD_BYTE_1+: addr=0x0102, data=0x83
[   11.737875] MESSAGE:SPI WRITE:                    ARM_COMMAND: addr=0x0100, data=0x0a
[   11.745823] MESSAGE:SPI READ:                               : addr=0x0108, data=0x00
[   11.753651] adrv9001.c : function : adrv9002_get_arm_clk: Line: 3176 => IN
[   11.753654] adrv9001.c : adrv9002_get_arm_clk: Line: 3179,sys clock 48*10
[   11.760522] adrv9001.c : function : adrv9002_get_arm_clk: Line: 3184 => OUT
[   11.774315] MESSAGE:SPI WRITE:            ARM_EXT_CMD_BYTE_1+: addr=0x0101, data=0x00
[   11.782256] MESSAGE:SPI WRITE:            ARM_EXT_CMD_BYTE_1+: addr=0x0102, data=0x80
[   11.790198] MESSAGE:SPI WRITE:            ARM_EXT_CMD_BYTE_1+: addr=0x0103, data=0x19
[   11.798140] MESSAGE:SPI WRITE:                    ARM_COMMAND: addr=0x0100, data=0x0c
[   11.806085] MESSAGE:SPI READ:                               : addr=0x0109, data=0x00
[   11.814538] MESSAGE:SPI READ:               arm_cmd_status_9: addr=0x010f, data=0x00
[   11.822361] ADRV9001_ADDR_ARM_CMD_STATUS_9 0
[   11.822363] ADI Tx Channel 2
[   11.830565] MESSAGE:SPI WRITE:            ARM_EXT_CMD_BYTE_1+: addr=0x0101, data=0x08
[   11.838512] MESSAGE:SPI WRITE:            ARM_EXT_CMD_BYTE_1+: addr=0x0102, data=0x9c
[   11.846454] MESSAGE:SPI WRITE:                    ARM_COMMAND: addr=0x0100, data=0x0a
[   11.854405] MESSAGE:SPI READ:                               : addr=0x0108, data=0x00
[   11.862291] MESSAGE:SPI WRITE:            ARM_EXT_CMD_BYTE_1+: addr=0x0101, data=0xcf
[   11.870239] MESSAGE:SPI WRITE:            ARM_EXT_CMD_BYTE_1+: addr=0x0102, data=0x93
[   11.878179] MESSAGE:SPI WRITE:                    ARM_COMMAND: addr=0x0100, data=0x0a
[   11.886123] MESSAGE:SPI READ:                               : addr=0x0108, data=0x00
[   11.894532] MESSAGE:SPI WRITE:            ARM_EXT_CMD_BYTE_1+: addr=0x0101, data=0x00
[   11.902474] MESSAGE:SPI WRITE:            ARM_EXT_CMD_BYTE_1+: addr=0x0102, data=0x8f
[   11.910416] MESSAGE:SPI WRITE:            ARM_EXT_CMD_BYTE_1+: addr=0x0103, data=0xb2
[   11.918358] MESSAGE:SPI WRITE:            ARM_EXT_CMD_BYTE_1+: addr=0x0104, data=0x00
[   11.926300] MESSAGE:SPI WRITE:            ARM_EXT_CMD_BYTE_1+: addr=0x0105, data=0x00
[   11.934241] MESSAGE:SPI WRITE:                    ARM_COMMAND: addr=0x0100, data=0x0c
[   11.942272] MESSAGE:SPI READ:                               : addr=0x0109, data=0x00
[   11.956750] adrv9001.c : function : adrv9002_radio_init: Line: 2833 => OUT
[   11.956754] adrv9001.c : function : adrv9002_tx_set_dac_full_scale: Line: 2367 =>IN
[   11.963620] adrv9001.c : function : adrv9002_tx_set_dac_full_scale: Line: 2380 =>OUT
[   11.979811] MESSAGE:SPI WRITE:            ARM_EXT_CMD_BYTE_1+: addr=0x0101, data=0x00
[   11.987763] MESSAGE:SPI WRITE:            ARM_EXT_CMD_BYTE_1+: addr=0x0102, data=0x00
[   11.995705] MESSAGE:SPI WRITE:            ARM_EXT_CMD_BYTE_1+: addr=0x0103, data=0x00
[   12.003649] MESSAGE:SPI WRITE:                    ARM_COMMAND: addr=0x0100, data=0x02
[   12.011593] MESSAGE:SPI READ:                               : addr=0x0106, data=0x10
[   12.020467] MESSAGE:SPI READ:                               : addr=0x0106, data=0x10
[   12.029344] MESSAGE:SPI READ:                               : addr=0x0106, data=0x10
[   12.038214] MESSAGE:SPI READ:                               : addr=0x0106, data=0x10
[   12.047089] MESSAGE:SPI READ:                               : addr=0x0106, data=0x10
[   12.055965] MESSAGE:SPI READ:                               : addr=0x0106, data=0x10
[   12.064836] MESSAGE:SPI READ:                               : addr=0x0106, data=0x10
[   12.073707] MESSAGE:SPI READ:                               : addr=0x0106, data=0x10
[   12.082578] MESSAGE:SPI READ:                               : addr=0x0106, data=0x10
[   12.091449] MESSAGE:SPI READ:                               : addr=0x0106, data=0x10
[   12.100319] MESSAGE:SPI READ:                               : addr=0x0106, data=0x10
[   12.109190] MESSAGE:SPI READ:                               : addr=0x0106, data=0x10
[   12.118064] MESSAGE:SPI READ:                               : addr=0x0106, data=0x10
[   12.126933] MESSAGE:SPI READ:                               : addr=0x0106, data=0x10
[   12.135803] MESSAGE:SPI READ:                               : addr=0x0106, data=0x10
[   12.144676] MESSAGE:SPI READ:                               : addr=0x0106, data=0x10
[   12.153549] MESSAGE:SPI READ:                               : addr=0x0106, data=0x10
[   12.162426] MESSAGE:SPI READ:                               : addr=0x0106, data=0x10
[   12.171296] MESSAGE:SPI READ:                               : addr=0x0106, data=0x10
[   12.180167] MESSAGE:SPI READ:                               : addr=0x0106, data=0x10
[   12.189039] MESSAGE:SPI READ:                               : addr=0x0106, data=0x10
[   12.197909] MESSAGE:SPI READ:                               : addr=0x0106, data=0x10
[   12.206780] MESSAGE:SPI READ:                               : addr=0x0106, data=0x10
[   12.215650] MESSAGE:SPI READ:                               : addr=0x0106, data=0x10
[   12.224522] MESSAGE:SPI READ:                               : addr=0x0106, data=0x10
[   12.233392] MESSAGE:SPI READ:                               : addr=0x0106, data=0x10
[   12.242264] MESSAGE:SPI READ:                               : addr=0x0106, data=0x10
[   12.251136] MESSAGE:SPI READ:                               : addr=0x0106, data=0x10
[   12.260008] MESSAGE:SPI READ:                               : addr=0x0106, data=0x10
[   12.268888] MESSAGE:SPI READ:                               : addr=0x0106, data=0x10
[   12.277765] MESSAGE:SPI READ:                               : addr=0x0106, data=0x10
[   12.286636] MESSAGE:SPI READ:                               : addr=0x0106, data=0x10
[   12.295508] MESSAGE:SPI READ:                               : addr=0x0106, data=0x10
[   12.304377] MESSAGE:SPI READ:                               : addr=0x0106, data=0x10
[   12.313249] MESSAGE:SPI READ:                               : addr=0x0106, data=0x10
[   12.322120] MESSAGE:SPI READ:                               : addr=0x0106, data=0x10
[   12.330989] MESSAGE:SPI READ:                               : addr=0x0106, data=0x10
[   12.339861] MESSAGE:SPI READ:                               : addr=0x0106, data=0x10
[   12.348732] MESSAGE:SPI READ:                               : addr=0x0106, data=0x10
[   12.357604] MESSAGE:SPI READ:                               : addr=0x0106, data=0x10
[   12.366479] MESSAGE:SPI READ:                               : addr=0x0106, data=0x10
[   12.375354] MESSAGE:SPI READ:                               : addr=0x0106, data=0x10
[   12.384226] MESSAGE:SPI READ:                               : addr=0x0106, data=0x10
[   12.393099] MESSAGE:SPI READ:                               : addr=0x0106, data=0x10
[   12.401975] MESSAGE:SPI READ:                               : addr=0x0106, data=0x10
[   12.410847] MESSAGE:SPI READ:                               : addr=0x0106, data=0x10
[   12.419718] MESSAGE:SPI READ:                               : addr=0x0106, data=0x10
[   12.428589] MESSAGE:SPI READ:                               : addr=0x0106, data=0x10
[   12.437460] MESSAGE:SPI READ:                               : addr=0x0106, data=0x10
[   12.446331] MESSAGE:SPI READ:                               : addr=0x0106, data=0x10
[   12.455199] MESSAGE:SPI READ:                               : addr=0x0106, data=0x10
[   12.464069] MESSAGE:SPI READ:                               : addr=0x0106, data=0x10
[   12.472947] MESSAGE:SPI READ:                               : addr=0x0106, data=0x10
[   12.481824] MESSAGE:SPI READ:                               : addr=0x0106, data=0x10
[   12.490695] MESSAGE:SPI READ:                               : addr=0x0106, data=0x10
[   12.499565] MESSAGE:SPI READ:                               : addr=0x0106, data=0x10
[   12.508436] MESSAGE:SPI READ:                               : addr=0x0106, data=0x10
[   12.517310] MESSAGE:SPI READ:                               : addr=0x0106, data=0x10
[   12.526187] MESSAGE:SPI READ:                               : addr=0x0106, data=0x10
[   12.535057] MESSAGE:SPI READ:                               : addr=0x0106, data=0x10
[   12.543928] MESSAGE:SPI READ:                               : addr=0x0106, data=0x10
[   12.552798] MESSAGE:SPI READ:                               : addr=0x0106, data=0x10
[   12.561669] MESSAGE:SPI READ:                               : addr=0x0106, data=0x10
[   12.570540] MESSAGE:SPI READ:                               : addr=0x0106, data=0x10
[   12.579416] MESSAGE:SPI READ:                               : addr=0x0106, data=0x10
[   12.588292] MESSAGE:SPI READ:                               : addr=0x0106, data=0x10
[   12.597163] MESSAGE:SPI READ:                               : addr=0x0106, data=0x10
[   12.606035] MESSAGE:SPI READ:                               : addr=0x0106, data=0x10
[   12.614903] MESSAGE:SPI READ:                               : addr=0x0106, data=0x10
[   12.623776] MESSAGE:SPI READ:                               : addr=0x0106, data=0x10
[   12.632646] MESSAGE:SPI READ:                               : addr=0x0106, data=0x10
[   12.641520] MESSAGE:SPI READ:                               : addr=0x0106, data=0x10
[   12.650399] MESSAGE:SPI READ:                               : addr=0x0106, data=0x10
[   12.659268] MESSAGE:SPI READ:                               : addr=0x0106, data=0x10
[   12.668139] MESSAGE:SPI READ:                               : addr=0x0106, data=0x10
[   12.677010] MESSAGE:SPI READ:                               : addr=0x0106, data=0x10
[   12.685884] MESSAGE:SPI READ:                               : addr=0x0106, data=0x10
[   12.694762] MESSAGE:SPI READ:                               : addr=0x0106, data=0x10
[   12.703632] MESSAGE:SPI READ:                               : addr=0x0106, data=0x10
[   12.712502] MESSAGE:SPI READ:                               : addr=0x0106, data=0x10
[   12.721374] MESSAGE:SPI READ:                               : addr=0x0106, data=0x10
[   12.730245] MESSAGE:SPI READ:                               : addr=0x0106, data=0x10
[   12.739115] MESSAGE:SPI READ:                               : addr=0x0106, data=0x10
[   12.747986] MESSAGE:SPI READ:                               : addr=0x0106, data=0x10
[   12.756858] MESSAGE:SPI READ:                               : addr=0x0106, data=0x10
[   12.765731] MESSAGE:SPI READ:                               : addr=0x0106, data=0x10
[   12.774600] MESSAGE:SPI READ:                               : addr=0x0106, data=0x10
[   12.783471] MESSAGE:SPI READ:                               : addr=0x0106, data=0x10
[   12.792344] MESSAGE:SPI READ:                               : addr=0x0106, data=0x10
[   12.801221] MESSAGE:SPI READ:                               : addr=0x0106, data=0x10
[   12.810092] MESSAGE:SPI READ:                               : addr=0x0106, data=0x10
[   12.818963] MESSAGE:SPI READ:                               : addr=0x0106, data=0x10
[   12.827835] MESSAGE:SPI READ:                               : addr=0x0106, data=0x10
[   12.836705] MESSAGE:SPI READ:                               : addr=0x0106, data=0x10
[   12.845575] MESSAGE:SPI READ:                               : addr=0x0106, data=0x10
[   12.854447] MESSAGE:SPI READ:                               : addr=0x0106, data=0x10
[   12.863318] MESSAGE:SPI READ:                               : addr=0x0106, data=0x10
[   12.872187] MESSAGE:SPI READ:                               : addr=0x0106, data=0x10
[   12.881059] MESSAGE:SPI READ:                               : addr=0x0106, data=0x10
[   12.889933] MESSAGE:SPI READ:                               : addr=0x0106, data=0x10
[   12.898814] MESSAGE:SPI READ:                               : addr=0x0106, data=0x10
[   12.907690] MESSAGE:SPI READ:                               : addr=0x0106, data=0x10
[   12.916561] MESSAGE:SPI READ:                               : addr=0x0106, data=0x10
[   12.925432] MESSAGE:SPI READ:                               : addr=0x0106, data=0x10
[   12.934304] MESSAGE:SPI READ:                               : addr=0x0106, data=0x10
[   12.943174] MESSAGE:SPI READ:                               : addr=0x0106, data=0x10
[   12.952045] MESSAGE:SPI READ:                               : addr=0x0106, data=0x10
[   12.960915] MESSAGE:SPI READ:                               : addr=0x0106, data=0x10
[   12.969786] MESSAGE:SPI READ:                               : addr=0x0106, data=0x10
[   12.978657] MESSAGE:SPI READ:                               : addr=0x0106, data=0x10
[   12.987529] MESSAGE:SPI READ:                               : addr=0x0106, data=0x10
[   12.996396] MESSAGE:SPI READ:                               : addr=0x0106, data=0x10
[   13.005273] MESSAGE:SPI READ:                               : addr=0x0106, data=0x10
[   13.014151] MESSAGE:SPI READ:                               : addr=0x0106, data=0x10
[   13.023022] MESSAGE:SPI READ:                               : addr=0x0106, data=0x10
[   13.031892] MESSAGE:SPI READ:                               : addr=0x0106, data=0x10
[   13.040763] MESSAGE:SPI READ:                               : addr=0x0106, data=0x10
[   13.049635] MESSAGE:SPI READ:                               : addr=0x0106, data=0x10
[   13.058506] MESSAGE:SPI READ:                               : addr=0x0106, data=0x10
[   13.067379] MESSAGE:SPI READ:                               : addr=0x0106, data=0x10
[   13.076256] MESSAGE:SPI READ:                               : addr=0x0106, data=0x10
[   13.085127] MESSAGE:SPI READ:                               : addr=0x0106, data=0x10
[   13.094003] MESSAGE:SPI READ:                               : addr=0x0106, data=0x10
[   13.102873] MESSAGE:SPI READ:                               : addr=0x0106, data=0x10
[   13.111753] MESSAGE:SPI READ:                               : addr=0x0106, data=0x10
[   13.120628] MESSAGE:SPI READ:                               : addr=0x0106, data=0x10
[   13.129498] MESSAGE:SPI READ:                               : addr=0x0106, data=0x10
[   13.138371] MESSAGE:SPI READ:                               : addr=0x0106, data=0x10
[   13.147241] MESSAGE:SPI READ:                               : addr=0x0106, data=0x10
[   13.156111] MESSAGE:SPI READ:                               : addr=0x0106, data=0x10
[   13.164982] MESSAGE:SPI READ:                               : addr=0x0106, data=0x10
[   13.173853] MESSAGE:SPI READ:                               : addr=0x0106, data=0x10
[   13.182727] MESSAGE:SPI READ:                               : addr=0x0106, data=0x10
[   13.191606] MESSAGE:SPI READ:                               : addr=0x0106, data=0x10
[   13.200483] MESSAGE:SPI READ:                               : addr=0x0106, data=0x10
[   13.209354] MESSAGE:SPI READ:                               : addr=0x0106, data=0x10
[   13.218230] MESSAGE:SPI READ:                               : addr=0x0106, data=0x10
[   13.227106] MESSAGE:SPI READ:                               : addr=0x0106, data=0x10
[   13.235976] MESSAGE:SPI READ:                               : addr=0x0106, data=0x10
[   13.244847] MESSAGE:SPI READ:                               : addr=0x0106, data=0x10
[   13.253716] MESSAGE:SPI READ:                               : addr=0x0106, data=0x10
[   13.262590] MESSAGE:SPI READ:                               : addr=0x0106, data=0x10
[   13.271460] MESSAGE:SPI READ:                               : addr=0x0106, data=0x10
[   13.280330] MESSAGE:SPI READ:                               : addr=0x0106, data=0x10
[   13.289201] MESSAGE:SPI READ:                               : addr=0x0106, data=0x10
[   13.298074] MESSAGE:SPI READ:                               : addr=0x0106, data=0x10
[   13.306944] MESSAGE:SPI READ:                               : addr=0x0106, data=0x10
[   13.315818] MESSAGE:SPI READ:                               : addr=0x0106, data=0x10
[   13.324697] MESSAGE:SPI READ:                               : addr=0x0106, data=0x10
[   13.333574] MESSAGE:SPI READ:                               : addr=0x0106, data=0x10
[   13.342446] MESSAGE:SPI READ:                               : addr=0x0106, data=0x10
[   13.351316] MESSAGE:SPI READ:                               : addr=0x0106, data=0x10
[   13.360188] MESSAGE:SPI READ:                               : addr=0x0106, data=0x10
[   13.369057] MESSAGE:SPI READ:                               : addr=0x0106, data=0x10
[   13.377928] MESSAGE:SPI READ:                               : addr=0x0106, data=0x10
[   13.386800] MESSAGE:SPI READ:                               : addr=0x0106, data=0x10
[   13.395671] MESSAGE:SPI READ:                               : addr=0x0106, data=0x10
[   13.404541] MESSAGE:SPI READ:                               : addr=0x0106, data=0x10
[   13.413413] MESSAGE:SPI READ:                               : addr=0x0106, data=0x10
[   13.422282] MESSAGE:SPI READ:                               : addr=0x0106, data=0x10
[   13.431157] MESSAGE:SPI READ:                               : addr=0x0106, data=0x10
[   13.440037] MESSAGE:SPI READ:                               : addr=0x0106, data=0x10
[   13.448915] MESSAGE:SPI READ:                               : addr=0x0106, data=0x10
[   13.457785] MESSAGE:SPI READ:                               : addr=0x0106, data=0x10
[   13.466656] MESSAGE:SPI READ:                               : addr=0x0106, data=0x10
[   13.475526] MESSAGE:SPI READ:                               : addr=0x0106, data=0x10
[   13.484399] MESSAGE:SPI READ:                               : addr=0x0106, data=0x10
[   13.493269] MESSAGE:SPI READ:                               : addr=0x0106, data=0x10
[   13.502140] MESSAGE:SPI READ:                               : addr=0x0106, data=0x10
[   13.511011] MESSAGE:SPI READ:                               : addr=0x0106, data=0x10
[   13.519882] MESSAGE:SPI READ:                               : addr=0x0106, data=0x10
[   13.528753] MESSAGE:SPI READ:                               : addr=0x0106, data=0x10
[   13.537626] MESSAGE:SPI READ:                               : addr=0x0106, data=0x10
[   13.546495] MESSAGE:SPI READ:                               : addr=0x0106, data=0x10
[   13.555366] MESSAGE:SPI READ:                               : addr=0x0106, data=0x10
[   13.564239] MESSAGE:SPI READ:                               : addr=0x0106, data=0x10
[   13.573117] MESSAGE:SPI READ:                               : addr=0x0106, data=0x10
[   13.581989] MESSAGE:SPI READ:                               : addr=0x0106, data=0x10
[   13.590867] MESSAGE:SPI READ:                               : addr=0x0106, data=0x10
[   13.599736] MESSAGE:SPI READ:                               : addr=0x0106, data=0x10
[   13.608609] MESSAGE:SPI READ:                               : addr=0x0106, data=0x10
[   13.617480] MESSAGE:SPI READ:                               : addr=0x0106, data=0x10
[   13.626351] MESSAGE:SPI READ:                               : addr=0x0106, data=0x10
[   13.635218] MESSAGE:SPI READ:                               : addr=0x0106, data=0x10
[   13.644095] MESSAGE:SPI READ:                               : addr=0x0106, data=0x10
[   13.652973] MESSAGE:SPI READ:                               : addr=0x0106, data=0x10
[   13.661843] MESSAGE:SPI READ:                               : addr=0x0106, data=0x10
[   13.670715] MESSAGE:SPI READ:                               : addr=0x0106, data=0x10
[   13.679585] MESSAGE:SPI READ:                               : addr=0x0106, data=0x10
[   13.688459] MESSAGE:SPI READ:                               : addr=0x0106, data=0x10
[   13.697335] MESSAGE:SPI READ:                               : addr=0x0106, data=0x10
[   13.706208] MESSAGE:SPI READ:                               : addr=0x0106, data=0x10
[   13.715079] MESSAGE:SPI READ:                               : addr=0x0106, data=0x10
[   13.723949] MESSAGE:SPI READ:                               : addr=0x0106, data=0x10
[   13.732820] MESSAGE:SPI READ:                               : addr=0x0106, data=0x10
[   13.741690] MESSAGE:SPI READ:                               : addr=0x0106, data=0x10
[   13.750564] MESSAGE:SPI READ:                               : addr=0x0106, data=0x10
[   13.759441] MESSAGE:SPI READ:                               : addr=0x0106, data=0x10
[   13.768312] MESSAGE:SPI READ:                               : addr=0x0106, data=0x10
[   13.777183] MESSAGE:SPI READ:                               : addr=0x0106, data=0x10
[   13.786052] MESSAGE:SPI READ:                               : addr=0x0106, data=0x10
[   13.794925] MESSAGE:SPI READ:                               : addr=0x0106, data=0x10
[   13.803796] MESSAGE:SPI READ:                               : addr=0x0106, data=0x10
[   13.812669] MESSAGE:SPI READ:                               : addr=0x0106, data=0x10
[   13.821545] MESSAGE:SPI READ:                               : addr=0x0106, data=0x10
[   13.830418] MESSAGE:SPI READ:                               : addr=0x0106, data=0x10
[   13.839288] MESSAGE:SPI READ:                               : addr=0x0106, data=0x10
[   13.848159] MESSAGE:SPI READ:                               : addr=0x0106, data=0x10
[   13.857033] MESSAGE:SPI READ:                               : addr=0x0106, data=0x10
[   13.865910] MESSAGE:SPI READ:                               : addr=0x0106, data=0x10
[   13.874781] MESSAGE:SPI READ:                               : addr=0x0106, data=0x10
[   13.883652] MESSAGE:SPI READ:                               : addr=0x0106, data=0x10
[   13.892523] MESSAGE:SPI READ:                               : addr=0x0106, data=0x10
[   13.901393] MESSAGE:SPI READ:                               : addr=0x0106, data=0x10
[   13.910264] MESSAGE:SPI READ:                               : addr=0x0106, data=0x10
[   13.919135] MESSAGE:SPI READ:                               : addr=0x0106, data=0x10
[   13.928012] MESSAGE:SPI READ:                               : addr=0x0106, data=0x10
[   13.936890] MESSAGE:SPI READ:                               : addr=0x0106, data=0x10
[   13.945766] MESSAGE:SPI READ:                               : addr=0x0106, data=0x10
[   13.954635] MESSAGE:SPI READ:                               : addr=0x0106, data=0x10
[   13.963510] MESSAGE:SPI READ:                               : addr=0x0106, data=0x10
[   13.972387] MESSAGE:SPI READ:                               : addr=0x0106, data=0x10
[   13.981260] MESSAGE:SPI READ:                               : addr=0x0106, data=0x10
[   13.990130] MESSAGE:SPI READ:                               : addr=0x0106, data=0x10
[   13.999001] MESSAGE:SPI READ:                               : addr=0x0106, data=0x10
[   14.007871] MESSAGE:SPI READ:                               : addr=0x0106, data=0x10
[   14.016741] MESSAGE:SPI READ:                               : addr=0x0106, data=0x10
[   14.025613] MESSAGE:SPI READ:                               : addr=0x0106, data=0x10
[   14.034484] MESSAGE:SPI READ:                               : addr=0x0106, data=0x10
[   14.043355] MESSAGE:SPI READ:                               : addr=0x0106, data=0x10
[   14.052227] MESSAGE:SPI READ:                               : addr=0x0106, data=0x10
[   14.061099] MESSAGE:SPI READ:                               : addr=0x0106, data=0x10
[   14.069979] MESSAGE:SPI READ:                               : addr=0x0106, data=0x10
